CITIFILE A.01.00
#NA VERSION HP8753E.07.12
NAME DATA
VAR FREQ MAG 201
DATA S[1,1] RI
DATA S[2,1] RI
DATA S[1,2] RI
DATA S[2,2] RI
SEG_LIST_BEGIN
SEG 5675000000 5925000000 201
SEG_LIST_END
BEGIN
1.10754E0,-4.26025E-2
1.10827E0,-4.13818E-2
1.10913E0,-4.21142E-2
1.10742E0,-4.05273E-2
1.11035E0,-3.97949E-2
1.10766E0,-3.97949E-2
1.10766E0,-4.07714E-2
1.10852E0,-4.18701E-2
1.11047E0,-4.02832E-2
1.10876E0,-4.18701E-2
1.10888E0,-4.23584E-2
1.11022E0,-4.24804E-2
1.10754E0,-4.17480E-2
1.10864E0,-4.19921E-2
1.10913E0,-4.24804E-2
1.10864E0,-4.23584E-2
1.10986E0,-4.23584E-2
1.10827E0,-4.16259E-2
1.10998E0,-4.41894E-2
1.11035E0,-4.39453E-2
1.10925E0,-4.22363E-2
1.10937E0,-4.37011E-2
1.10900E0,-4.35791E-2
1.10986E0,-4.29687E-2
1.10803E0,-4.26025E-2
1.10974E0,-4.30908E-2
1.11035E0,-4.34570E-2
1.11022E0,-4.28466E-2
1.10900E0,-4.16259E-2
1.11010E0,-4.30908E-2
1.10839E0,-4.21142E-2
1.11059E0,-4.31518E-2
1.10839E0,-4.44946E-2
1.10894E0,-4.30297E-2
1.11004E0,-4.43725E-2
1.11035E0,-4.32128E-2
1.10845E0,-4.39453E-2
1.10943E0,-4.40063E-2
1.11016E0,-4.41894E-2
1.11071E0,-4.40063E-2
1.11108E0,-4.38842E-2
1.11163E0,-4.27856E-2
1.11126E0,-4.38842E-2
1.11187E0,-4.32739E-2
1.11206E0,-4.30908E-2
1.11206E0,-4.54711E-2
1.11267E0,-4.31518E-2
1.11218E0,-4.44335E-2
1.11334E0,-4.27246E-2
1.11291E0,-4.55322E-2
1.11254E0,-4.31518E-2
1.11303E0,-4.38232E-2
1.11254E0,-4.26635E-2
1.11309E0,-4.25415E-2
1.11389E0,-4.35791E-2
1.11267E0,-4.44946E-2
1.11273E0,-4.32739E-2
1.11248E0,-4.30297E-2
1.11224E0,-4.34570E-2
1.11230E0,-4.39453E-2
1.11236E0,-4.11377E-2
1.11193E0,-4.19311E-2
1.11218E0,-4.32739E-2
1.11145E0,-4.16259E-2
1.11254E0,-4.29077E-2
1.11193E0,-4.24194E-2
1.11267E0,-4.22363E-2
1.11383E0,-4.15649E-2
1.11138E0,-4.22363E-2
1.11169E0,-4.19921E-2
1.11230E0,-4.20532E-2
1.11193E0,-4.06494E-2
1.11163E0,-4.19311E-2
1.11126E0,-4.16259E-2
1.11224E0,-4.11377E-2
1.11132E0,-4.13818E-2
1.11120E0,-4.19921E-2
1.11096E0,-4.12597E-2
1.11169E0,-4.05883E-2
1.11108E0,-4.16259E-2
1.11059E0,-4.31518E-2
1.11010E0,-4.28466E-2
1.11071E0,-4.19921E-2
1.11084E0,-4.19921E-2
1.11114E0,-4.27246E-2
1.10961E0,-4.33349E-2
1.11022E0,-4.26025E-2
1.11010E0,-4.26025E-2
1.11035E0,-4.38232E-2
1.11035E0,-4.30908E-2
1.10986E0,-4.32128E-2
1.10974E0,-4.33349E-2
1.10900E0,-4.46777E-2
1.10827E0,-4.29687E-2
1.10949E0,-4.29687E-2
1.10839E0,-4.41894E-2
1.10961E0,-4.34570E-2
1.10852E0,-4.29687E-2
1.10778E0,-4.44335E-2
1.10888E0,-4.29687E-2
1.10754E0,-4.43115E-2
1.10815E0,-4.34570E-2
1.10852E0,-4.37011E-2
1.10839E0,-4.35791E-2
1.10778E0,-4.45556E-2
1.10900E0,-4.49218E-2
1.10913E0,-4.37011E-2
1.10864E0,-4.37011E-2
1.10876E0,-4.29687E-2
1.10925E0,-4.33349E-2
1.10998E0,-4.24804E-2
1.10986E0,-4.24804E-2
1.10937E0,-4.38232E-2
1.10888E0,-4.33349E-2
1.10864E0,-4.30908E-2
1.10949E0,-4.50439E-2
1.10925E0,-4.33349E-2
1.11157E0,-4.37011E-2
1.11071E0,-4.29687E-2
1.11010E0,-4.28466E-2
1.10913E0,-4.33349E-2
1.11071E0,-4.41894E-2
1.10839E0,-4.29687E-2
1.11084E0,-4.34570E-2
1.10913E0,-4.17480E-2
1.11022E0,-4.33349E-2
1.10913E0,-4.22363E-2
1.10827E0,-4.21142E-2
1.10894E0,-4.21752E-2
1.10797E0,-4.44335E-2
1.10852E0,-4.17480E-2
1.10876E0,-4.18090E-2
1.10736E0,-4.32128E-2
1.10943E0,-4.34570E-2
1.10766E0,-4.40673E-2
1.10687E0,-4.41894E-2
1.10864E0,-4.47387E-2
1.10754E0,-4.47387E-2
1.10839E0,-4.62036E-2
1.10815E0,-4.37011E-2
1.10845E0,-4.35180E-2
1.10821E0,-4.3396E-2
1.10681E0,-4.42504E-2
1.1073E0,-4.38232E-2
1.10827E0,-4.53491E-2
1.10839E0,-4.46167E-2
1.10827E0,-4.49218E-2
1.10638E0,-4.51660E-2
1.10736E0,-4.37622E-2
1.10845E0,-4.51660E-2
1.10571E0,-4.55322E-2
1.10662E0,-4.6875E-2
1.10559E0,-4.51049E-2
1.10833E0,-4.6875E-2
1.10553E0,-4.69970E-2
1.10803E0,-4.71801E-2
1.10656E0,-4.77905E-2
1.10528E0,-4.90722E-2
1.10748E0,-4.80957E-2
1.10644E0,-4.73632E-2
1.10485E0,-4.85229E-2
1.10595E0,-4.80957E-2
1.10443E0,-4.96826E-2
1.10473E0,-4.82177E-2
1.10522E0,-4.86450E-2
1.10491E0,-4.66308E-2
1.10516E0,-4.80346E-2
1.10376E0,-4.79736E-2
1.10430E0,-4.91333E-2
1.10437E0,-4.61425E-2
1.10351E0,-4.58374E-2
1.10461E0,-4.69360E-2
1.10565E0,-4.84619E-2
1.10546E0,-4.56543E-2
1.10516E0,-4.79126E-2
1.10369E0,-4.6875E-2
1.10388E0,-4.67529E-2
1.10400E0,-4.76074E-2
1.10339E0,-4.80957E-2
1.10473E0,-4.77294E-2
1.10437E0,-4.73632E-2
1.10510E0,-4.69970E-2
1.10717E0,-4.78515E-2
1.10485E0,-4.77294E-2
1.10559E0,-4.77294E-2
1.10632E0,-4.85839E-2
1.10534E0,-4.82177E-2
1.10485E0,-4.88281E-2
1.10400E0,-4.82177E-2
1.10449E0,-4.88281E-2
1.10424E0,-4.83398E-2
1.10400E0,-4.83398E-2
1.10339E0,-5.02929E-2
1.10327E0,-4.96826E-2
1.10302E0,-4.90722E-2
1.10192E0,-4.80957E-2
1.10253E0,-4.96826E-2
1.10168E0,-4.95605E-2
1.10192E0,-4.94384E-2
1.10156E0,-4.96826E-2
1.10083E0,-4.90722E-2
END
BEGIN
3.08957E-5,-2.81166E-5
1.16089E-5,-9.54698E-6
-6.71297E-6,7.9602E-5
-2.07591E-5,-1.73598E-6
1.11656E-5,-1.20764E-5
-1.14701E-5,-2.06157E-5
-9.71928E-6,-3.07038E-5
-4.67561E-5,0.49620E-5
5.72837E-5,-2.07014E-5
-3.15681E-5,-4.43682E-5
2.40914E-5,-5.32716E-6
4.76650E-6,3.85195E-6
-9.86829E-6,-3.57963E-5
-3.09757E-6,-9.59169E-6
1.95689E-5,-3.95067E-5
-3.47104E-6,2.09896E-6
6.85006E-5,-4.749E-5
-2.15414E-5,0.07767E-5
0.79013E-5,1.76411E-5
-9.49390E-6,1.30133E-5
-4.73298E-6,-1.70618E-5
-5.26197E-5,1.15297E-5
-2.25771E-5,0.40717E-5
-4.37647E-5,-7.10785E-6
-9.19550E-5,-1.18240E-5
2.88803E-5,0.28386E-5
4.62494E-5,0.32074E-5
-2.86251E-5,-3.45632E-5
5.46220E-6,-1.51153E-5
0.17527E-5,-2.7325E-5
-2.80886E-6,-2.72877E-5
-7.66180E-5,-3.12253E-5
-2.06874E-5,0.77700E-5
5.04143E-5,2.34097E-5
6.60168E-6,-8.45128E-6
4.20361E-5,-5.23235E-5
-3.15625E-6,2.14874E-5
2.29422E-5,-1.05239E-6
2.45869E-5,2.45999E-5
-6.45630E-5,-4.93228E-6
1.36848E-5,4.12836E-5
2.29580E-5,-1.70525E-6
0.55916E-5,-3.82606E-5
-5.17815E-5,1.09635E-5
4.5022E-5,0.57760E-5
-1.91666E-5,-8.32229E-6
0.92741E-5,-2.48216E-5
2.53040E-5,0.04749E-5
5.01405E-5,1.56406E-5
3.61092E-5,4.33102E-5
1.09733E-6,4.84730E-6
1.27293E-5,-4.68287E-5
4.46811E-5,-2.17296E-5
4.00133E-5,-4.86765E-5
4.02480E-5,0.98366E-5
5.06434E-5,1.68420E-5
8.39605E-5,-7.53253E-6
3.6221E-5,-2.56616E-5
-7.17863E-6,1.67042E-5
5.28134E-5,3.93837E-5
6.96294E-5,-2.84239E-5
8.11554E-5,1.96024E-5
5.97685E-5,6.22496E-5
-1.28783E-5,-1.27591E-6
1.37593E-5,3.52542E-5
0.25536E-5,-2.38288E-5
1.46992E-4,-7.8246E-5
-1.50743E-5,-3.13017E-5
6.42724E-5,-3.86312E-6
4.58657E-5,-6.56209E-6
1.45821E-5,0.53504E-6
-9.50694E-6,2.32504E-6
4.32133E-5,-3.61520E-5
-1.06208E-5,-3.47867E-5
-3.78470E-5,0.21271E-5
3.11322E-5,4.57875E-5
6.93015E-5,-6.80983E-6
3.90168E-5,0.25108E-5
2.35252E-5,-3.97339E-5
1.33821E-5,4.13414E-6
2.21598E-5,1.74269E-5
-1.88686E-5,-5.23850E-5
2.50116E-5,1.79968E-5
0.20116E-5,5.09284E-5
1.83582E-5,-3.30582E-5
4.70280E-5,3.71336E-5
-1.43302E-5,1.77789E-6
-7.25872E-6,2.43000E-5
0.59343E-5,-4.09595E-5
4.82723E-5,-3.17096E-5
1.13509E-5,4.22708E-5
-2.01240E-5,1.02594E-5
2.78353E-5,0.62249E-5
3.73944E-5,6.76959E-5
6.84000E-5,-4.01474E-5
4.62681E-5,1.25914E-5
3.31699E-5,-5.18709E-5
3.03611E-5,-2.87313E-5
5.19976E-5,3.37585E-5
2.36667E-5,-4.69125E-5
4.58136E-5,3.20375E-5
1.77659E-5,0.60088E-5
-4.30643E-6,-4.69945E-5
0.45485E-5,-3.30358E-5
-4.94308E-5,4.97959E-5
4.37609E-5,0.38780E-5
0.33043E-5,-3.61688E-5
3.64817E-5,-2.95601E-5
4.42117E-5,1.38245E-5
-6.18398E-5,-5.72055E-5
1.19917E-5,1.90828E-5
2.33128E-5,4.60520E-5
5.68628E-5,2.49072E-5
1.89617E-5,6.52447E-5
4.21777E-5,-2.80775E-5
8.24257E-5,4.69237E-5
-1.23065E-5,-9.80682E-6
-1.45789E-5,2.85692E-5
3.42167E-5,-2.08336E-5
0.90375E-5,-3.24584E-5
1.11945E-5,-4.65363E-5
0.00447E-5,6.08786E-5
1.84793E-5,-6.85453E-6
2.07722E-5,3.56137E-5
2.82600E-5,-6.69248E-6
-9.40635E-6,3.74615E-5
4.26247E-5,1.00806E-5
1.32974E-5,-2.10404E-5
7.02515E-5,-2.60770E-7
-3.95029E-5,-1.31838E-5
0.68321E-5,-4.12203E-5
-1.35526E-5,5.84572E-5
3.49991E-5,-4.64543E-6
2.43075E-5,2.16513E-5
6.20819E-5,-1.54487E-5
0.48503E-5,-2.74404E-5
4.79146E-5,-1.76765E-5
-2.35438E-6,-2.49724E-5
7.13095E-5,1.50427E-5
0.04619E-5,5.44898E-5
3.42987E-5,-3.09869E-5
-1.12541E-5,3.92049E-5
1.10708E-4,2.88114E-5
-8.51228E-6,8.57003E-6
1.59926E-5,3.51034E-5
6.06179E-5,0.08232E-5
5.31375E-5,-5.99250E-5
-1.16564E-5,-1.44299E-5
5.82635E-5,3.68505E-5
5.40055E-5,-1.67302E-5
-9.41380E-6,-2.80290E-5
5.08688E-5,-2.57045E-7
-2.98991E-5,2.38977E-5
1.93417E-5,0.89947E-5
1.70953E-5,4.43235E-5
1.21519E-5,5.75650E-6
6.43432E-5,-1.04382E-5
5.96344E-5,-5.05670E-5
8.61212E-5,-7.08401E-5
-1.60094E-5,0.51520E-5
0.26784E-5,-2.00532E-5
1.65961E-6,1.42026E-5
5.12749E-5,2.22623E-5
2.43336E-5,-1.25076E-5
0.76107E-5,2.98805E-5
4.90918E-5,1.24014E-5
3.81954E-5,-1.57579E-6
-7.63591E-6,-3.67965E-6
5.83902E-5,-9.76026E-6
3.56659E-5,-1.72667E-5
-2.90889E-5,-1.58697E-6
2.14483E-5,1.13956E-5
1.54888E-5,-1.03507E-5
4.47891E-5,1.98259E-5
4.28557E-5,-2.66693E-5
3.21324E-5,-2.68127E-5
1.38171E-5,-2.32830E-5
1.33086E-5,-2.76565E-5
3.55038E-5,-2.46614E-5
1.50688E-5,-3.20263E-5
-1.20997E-5,-5.68181E-5
2.88467E-5,-8.32416E-6
1.06766E-5,5.18709E-5
-2.58162E-6,2.36798E-5
-1.26045E-5,4.29805E-6
5.49256E-5,2.19419E-5
4.79742E-5,1.77957E-5
-4.3571E-5,-3.10987E-5
1.20215E-5,9.64664E-6
3.14898E-5,0.24605E-5
-2.48886E-5,3.93055E-5
0.01862E-5,-3.09720E-5
4.78234E-6,-2.68779E-6
4.62159E-5,-3.81469E-6
2.32961E-5,-2.39536E-6
1.49533E-5,4.93153E-5
-7.10561E-5,3.04430E-5
5.52795E-5,0.42095E-5
1.27181E-5,2.57678E-5
-5.70993E-6,1.09802E-6
2.84649E-5,-5.96791E-5
END
BEGIN
-3.04840E-5,1.66073E-5
-8.96304E-6,-6.14076E-5
-9.96701E-6,-1.82967E-5
1.21109E-5,-1.44289E-5
2.83867E-5,-7.75903E-5
2.89082E-5,-3.80538E-6
-4.66108E-5,-2.70381E-5
2.92509E-5,-2.14856E-5
-2.22809E-5,1.35693E-5
0.74096E-5,1.58287E-5
4.68790E-5,-2.19866E-5
-1.85100E-6,-1.58604E-6
0.71525E-5,-4.58881E-5
0.22854E-5,-1.52653E-5
-2.63378E-6,-3.56249E-5
-1.9053E-5,-6.56768E-6
2.40691E-5,-4.85442E-5
-8.22171E-6,-1.58716E-5
0.48205E-5,-2.02320E-5
-2.26460E-5,-3.14079E-5
3.70554E-5,-2.47135E-5
-3.24845E-5,1.47149E-5
1.83098E-5,2.01575E-5
2.64607E-5,-4.61190E-6
1.80508E-5,-1.16657E-5
1.41598E-5,-2.56076E-5
2.26274E-5,5.04329E-5
-1.61156E-5,-3.27564E-5
1.86990E-5,0.68303E-5
-2.00271E-5,4.43272E-5
-1.09635E-5,-4.98294E-5
1.00778E-5,7.44313E-6
9.17119E-6,-1.39134E-5
-3.92124E-5,-1.52736E-6
0.20628E-5,-2.72439E-5
-2.41193E-5,-2.43783E-5
-8.77119E-6,3.65544E-5
-2.04863E-5,0.54352E-5
3.82438E-5,0.56363E-5
1.41691E-5,-3.67686E-5
0.13187E-5,-6.47306E-5
-1.61044E-5,4.19654E-5
2.07256E-5,0.52442E-5
4.89093E-5,4.50350E-5
2.40197E-5,-1.51153E-6
1.92690E-5,-1.92159E-5
-4.38652E-6,-3.56510E-5
2.07386E-5,3.28011E-5
-1.32881E-5,-8.53743E-6
1.17560E-5,0.92946E-6
-3.54088E-6,4.23844E-5
-9.03755E-6,-3.10633E-5
5.72148E-5,1.04419E-5
1.42864E-5,-2.30846E-5
-1.74054E-5,-8.82986E-6
1.27516E-5,6.65672E-5
1.16881E-5,1.44373E-5
3.08677E-5,6.55017E-5
3.44459E-5,-2.67159E-5
-1.72108E-6,6.41383E-5
4.09744E-5,-1.89803E-5
-1.06096E-5,-3.36840E-5
2.83625E-5,-7.70948E-6
4.72422E-5,-1.36047E-5
4.18536E-5,3.12440E-5
-6.88014E-6,3.32132E-6
1.39693E-5,-9.26666E-6
3.65972E-5,5.03175E-5
3.87448E-5,-2.10348E-5
3.04356E-5,-5.07533E-5
5.00902E-5,-4.45805E-5
4.97158E-5,-4.43365E-5
7.53346E-6,9.96794E-6
5.46798E-5,2.48439E-5
-2.12155E-6,-3.89665E-5
-1.78720E-6,-1.81030E-5
0.33387E-6,-1.28261E-5
0.51986E-5,2.79732E-5
-5.81331E-6,-4.50238E-5
0.20433E-5,3.73553E-5
5.46258E-5,0.55544E-5
2.61627E-5,-3.16295E-5
1.97785E-5,-1.50352E-5
2.88169E-5,-1.30683E-5
-4.16114E-6,-3.86070E-5
0.11809E-5,-3.46526E-5
1.09318E-5,-1.42175E-5
7.16187E-6,1.37649E-5
1.29994E-5,-3.13688E-5
3.67797E-5,-3.59639E-5
4.19206E-5,-2.12341E-7
5.11780E-5,2.45645E-5
4.14438E-5,-2.21319E-5
-1.51470E-5,-5.28469E-5
2.95769E-5,-2.23629E-5
2.15359E-5,-2.29366E-5
3.92198E-5,-3.85269E-5
1.18538E-5,4.38951E-5
2.43485E-5,-6.58780E-5
3.80128E-5,-1.40965E-5
0.81770E-5,3.42540E-5
3.05883E-5,-3.02046E-5
-9.38773E-7,-5.90123E-5
6.24992E-5,-1.42715E-5
-1.41114E-5,-2.15098E-5
5.86686E-6,-6.30971E-7
5.32716E-5,-5.81219E-5
1.42678E-5,-4.55696E-6
3.05920E-5,-6.46337E-5
-2.75261E-5,3.14004E-5
3.72119E-5,-5.07384E-6
-2.07684E-6,-2.40728E-5
-2.60025E-5,-3.92496E-5
0.48745E-5,2.55890E-5
-3.5882E-5,-2.52239E-5
-1.36233E-5,-3.71970E-5
2.43429E-5,0.47106E-5
6.05732E-6,5.01610E-6
1.51358E-5,-9.90275E-6
3.51537E-5,-2.29533E-5
1.00331E-5,-1.07158E-5
1.73524E-5,-2.18115E-5
3.22796E-5,0.99577E-5
6.55464E-6,-8.55978E-6
2.84910E-5,-7.13542E-5
4.00543E-5,1.00620E-5
3.31960E-5,-1.76578E-6
1.77733E-5,1.99154E-5
-1.37649E-6,-6.00423E-6
2.63266E-5,-6.31064E-5
1.70301E-5,0.56140E-5
8.46944E-6,-4.81493E-7
2.18376E-5,-2.84332E-5
1.19255E-5,-4.38652E-6
-1.96211E-5,-2.27578E-5
0.51446E-5,-4.05348E-5
4.64879E-5,-5.30891E-5
5.78314E-5,-1.19321E-5
8.58232E-5,-9.04500E-6
0.97584E-5,-2.46446E-5
6.33448E-5,-2.89939E-5
1.51172E-5,-4.28296E-5
1.51544E-5,-6.01634E-5
1.01225E-5,1.50688E-6
5.47170E-5,2.76863E-5
2.70456E-5,0.35669E-5
-7.95535E-6,1.81365E-5
5.37298E-5,1.75386E-5
2.83345E-5,1.84364E-5
-2.79694E-5,3.88547E-5
2.08132E-5,-3.26596E-5
5.92321E-5,-5.46500E-6
3.19033E-5,1.08964E-5
8.86693E-5,-2.04816E-5
-1.60532E-5,1.15623E-5
-1.60643E-5,-9.22009E-7
1.01141E-5,-1.94758E-5
-1.14906E-5,1.63205E-5
6.14710E-5,-1.45286E-5
-1.65924E-5,-6.33485E-6
1.24648E-5,-1.87978E-5
8.76374E-6,-9.35234E-6
4.97326E-5,0.32521E-5
8.63373E-5,-4.08589E-5
-1.45956E-5,-1.36364E-5
4.08031E-5,1.62757E-5
1.21966E-5,-2.65836E-5
3.39001E-5,0.58226E-5
-1.41514E-5,-2.41957E-6
1.95242E-5,-5.05745E-5
2.57454E-5,0.99670E-5
2.88356E-5,-1.13211E-5
3.36878E-5,-2.02916E-5
4.99328E-6,-1.93063E-6
3.92645E-5,-2.53170E-5
-1.76951E-7,2.14427E-5
-2.43224E-5,3.38554E-5
-3.89069E-5,3.30470E-5
1.87829E-5,-5.15952E-5
-9.94931E-6,7.02962E-6
2.78800E-5,4.38690E-5
6.20000E-5,-3.61129E-5
2.49054E-5,0.41443E-5
5.78090E-5,1.22003E-5
-1.16042E-5,1.54152E-5
-2.51643E-6,1.29658E-5
-7.00354E-6,2.88374E-5
4.11197E-5,4.33027E-5
6.26146E-5,-1.40033E-5
7.41332E-5,0.94026E-5
2.09491E-5,0.27939E-5
0.27269E-5,-4.85405E-5
4.89391E-5,0.29765E-5
-1.42827E-5,5.32902E-6
0.66086E-5,-8.22320E-5
-1.44401E-5,4.08478E-6
-2.67010E-6,-1.10948E-5
0.65844E-5,1.72592E-5
-2.76286E-5,1.79279E-5
-1.54804E-5,-1.74250E-6
-2.65240E-6,2.62651E-5
END
BEGIN
0.01464E-1,1.05615E0
-2.20947E-2,1.05639E0
-4.38232E-2,1.05554E0
-6.53076E-2,1.05456E0
-8.65478E-2,1.05249E0
-1.07910E-1,1.05175E0
-1.29760E-1,1.05004E0
-1.51367E-1,1.04528E0
-1.74804E-1,1.04370E0
-1.95922E-1,1.04150E0
-2.18017E-1,1.03833E0
-2.39868E-1,1.03393E0
-2.61962E-1,1.02954E0
-2.81860E-1,1.02063E0
-3.03955E-1,1.01641E0
-3.26660E-1,1.01098E0
-3.46435E-1,1.00366E0
-3.67981E-1,9.97497E-1
-3.88855E-1,9.89196E-1
-4.09423E-1,9.81567E-1
-4.30419E-1,9.71923E-1
-4.49585E-1,9.63501E-1
-4.70886E-1,9.53430E-1
-4.90356E-1,9.44335E-1
-5.10925E-1,9.33837E-1
-5.32897E-1,9.22912E-1
-5.50598E-1,9.13208E-1
-5.69702E-1,8.99169E-1
-5.9198E-1,8.87634E-1
-6.07238E-1,8.75488E-1
-6.26647E-1,8.62854E-1
-6.45660E-1,8.48968E-1
-6.66137E-1,8.33923E-1
-6.82281E-1,8.20587E-1
-6.99707E-1,8.07128E-1
-7.17376E-1,7.90618E-1
-7.35412E-1,7.74414E-1
-7.50946E-1,7.58148E-1
-7.66571E-1,7.41851E-1
-7.82959E-1,7.26440E-1
-7.98095E-1,7.09198E-1
-8.12469E-1,6.92627E-1
-8.28857E-1,6.73522E-1
-8.41949E-1,6.56311E-1
-8.56933E-1,6.37451E-1
-8.69537E-1,6.18408E-1
-8.83239E-1,5.99823E-1
-8.94287E-1,5.80627E-1
-9.07867E-1,5.60791E-1
-9.19891E-1,5.40313E-1
-9.30908E-1,5.21911E-1
-9.40521E-1,5.01983E-1
-9.51599E-1,4.80224E-1
-9.62219E-1,4.59594E-1
-9.71954E-1,4.39361E-1
-9.79187E-1,4.18243E-1
-9.89471E-1,3.96606E-1
-9.96429E-1,3.75152E-1
-1.00329E0,3.53393E-1
-1.01135E0,3.29650E-1
-1.01855E0,3.09814E-1
-1.02386E0,2.86193E-1
-1.02972E0,2.63427E-1
-1.03509E0,2.42797E-1
-1.04022E0,2.18200E-1
-1.04248E0,1.96350E-1
-1.04602E0,1.72912E-1
-1.05090E0,1.51550E-1
-1.05352E0,1.29943E-1
-1.05639E0,1.05529E-1
-1.05804E0,0.81970E-1
-1.05950E0,0.57495E-1
-1.06146E0,0.34362E-1
-1.06189E0,0.11413E-1
-1.06012E0,-1.42822E-2
-1.06066E0,-3.55224E-2
-1.05908E0,-5.96313E-2
-1.05645E0,-8.11767E-2
-1.05658E0,-1.05285E-1
-1.05279E0,-1.27807E-1
-1.04956E0,-1.50451E-1
-1.04669E0,-1.73278E-1
-1.0401E0,-1.96533E-1
-1.03686E0,-2.20581E-1
-1.03314E0,-2.42553E-1
-1.02612E0,-2.65991E-1
-1.02038E0,-2.88085E-1
-1.01123E0,-3.10424E-1
-1.00415E0,-3.30200E-1
-9.94140E-1,-3.54248E-1
-9.87304E-1,-3.74389E-1
-9.79736E-1,-3.97949E-1
-9.71923E-1,-4.20288E-1
-9.61425E-1,-4.40673E-1
-9.49340E-1,-4.61181E-1
-9.38598E-1,-4.81933E-1
-9.27368E-1,-5.02929E-1
-9.17480E-1,-5.23681E-1
-9.02587E-1,-5.45043E-1
-8.89282E-1,-5.62622E-1
-8.77563E-1,-5.83862E-1
-8.65478E-1,-6.01928E-1
-8.49365E-1,-6.19995E-1
-8.33740E-1,-6.39038E-1
-8.20190E-1,-6.55395E-1
-8.07373E-1,-6.75781E-1
-7.88940E-1,-6.93237E-1
-7.73437E-1,-7.09228E-1
-7.57690E-1,-7.28149E-1
-7.41210E-1,-7.41455E-1
-7.23388E-1,-7.58789E-1
-7.06420E-1,-7.73803E-1
-6.90063E-1,-7.89428E-1
-6.69555E-1,-8.06152E-1
-6.54663E-1,-8.18115E-1
-6.34155E-1,-8.33740E-1
-6.14502E-1,-8.46557E-1
-5.95336E-1,-8.59130E-1
-5.75195E-1,-8.69751E-1
-5.55175E-1,-8.84155E-1
-5.35766E-1,-8.93920E-1
-5.14648E-1,-9.05273E-1
-4.95727E-1,-9.17358E-1
-4.74609E-1,-9.27856E-1
-4.53857E-1,-9.37744E-1
-4.33349E-1,-9.44213E-1
-4.12475E-1,-9.56787E-1
-3.90380E-1,-9.61792E-1
-3.68652E-1,-9.71557E-1
-3.4729E-1,-9.78759E-1
-3.27758E-1,-9.83520E-1
-3.03833E-1,-9.89868E-1
-2.80517E-1,-9.97558E-1
-2.59521E-1,-1.00170E0
-2.37670E-1,-1.00866E0
-2.14111E-1,-1.01159E0
-1.95068E-1,-1.01599E0
-1.69921E-1,-1.01953E0
-1.48559E-1,-1.02160E0
-1.25976E-1,-1.02539E0
-1.01928E-1,-1.02844E0
-8.04443E-2,-1.03039E0
-5.85937E-2,-1.02880E0
-3.60107E-2,-1.02941E0
-1.14746E-2,-1.03027E0
0.05981E-1,-1.03088E0
0.31372E-1,-1.03002E0
0.51879E-1,-1.02929E0
0.75439E-1,-1.02685E0
0.96618E-1,-1.02569E0
1.18652E-1,-1.0224E0
1.41784E-1,-1.01959E0
1.61926E-1,-1.01605E0
1.84814E-1,-1.01110E0
2.05627E-1,-1.00732E0
2.29797E-1,-1.00268E0
2.48901E-1,-9.95544E-1
2.70446E-1,-9.91760E-1
2.91687E-1,-9.84802E-1
3.12744E-1,-9.79614E-1
3.34533E-1,-9.71496E-1
3.53820E-1,-9.61425E-1
3.75976E-1,-9.53491E-1
3.95446E-1,-9.45800E-1
4.14672E-1,-9.37194E-1
4.36340E-1,-9.26574E-1
4.55200E-1,-9.16931E-1
4.75891E-1,-9.06127E-1
4.93652E-1,-8.94836E-1
5.13732E-1,-8.85559E-1
5.31189E-1,-8.74328E-1
5.51147E-1,-8.61816E-1
5.70495E-1,-8.50647E-1
5.87463E-1,-8.38378E-1
6.06140E-1,-8.23669E-1
6.21887E-1,-8.13049E-1
6.40197E-1,-7.97058E-1
6.56799E-1,-7.84362E-1
6.71569E-1,-7.70446E-1
6.88110E-1,-7.55371E-1
7.05200E-1,-7.40600E-1
7.19726E-1,-7.26745E-1
7.34680E-1,-7.10876E-1
7.49328E-1,-6.94580E-1
7.63610E-1,-6.78772E-1
7.76611E-1,-6.63269E-1
7.90649E-1,-6.45690E-1
8.04748E-1,-6.30004E-1
8.18420E-1,-6.12487E-1
8.29406E-1,-5.94970E-1
8.43383E-1,-5.78369E-1
8.53820E-1,-5.60241E-1
8.66638E-1,-5.43823E-1
8.75976E-1,-5.23925E-1
8.87451E-1,-5.05554E-1
8.98620E-1,-4.86511E-1
9.06799E-1,-4.67407E-1
9.17114E-1,-4.50866E-1
9.27307E-1,-4.30786E-1
9.3573E-1,-4.11132E-1
9.45129E-1,-3.92028E-1
END

