CITIFILE A.01.00
#NA VERSION HP8753E.07.12
NAME DATA
VAR FREQ MAG 201
DATA S[1,1] RI
DATA S[2,1] RI
DATA S[1,2] RI
DATA S[2,2] RI
SEG_LIST_BEGIN
SEG 5675000000 5925000000 201
SEG_LIST_END
BEGIN
1.10864E0,-4.15039E-2
1.10791E0,-4.02832E-2
1.10778E0,-4.26025E-2
1.10815E0,-4.23584E-2
1.10900E0,-4.12597E-2
1.10815E0,-4.01611E-2
1.10900E0,-4.18701E-2
1.1073E0,-4.15039E-2
1.10986E0,-4.11377E-2
1.10888E0,-4.17480E-2
1.10791E0,-4.06494E-2
1.10864E0,-4.33349E-2
1.10791E0,-4.07714E-2
1.10949E0,-4.27246E-2
1.10864E0,-4.12597E-2
1.10961E0,-4.21142E-2
1.10888E0,-4.23584E-2
1.10949E0,-4.26025E-2
1.11084E0,-4.32128E-2
1.10864E0,-4.24804E-2
1.10937E0,-4.23584E-2
1.10876E0,-4.28466E-2
1.10974E0,-4.26025E-2
1.10827E0,-4.11377E-2
1.11047E0,-4.41894E-2
1.10974E0,-4.45556E-2
1.10925E0,-4.27246E-2
1.11059E0,-4.27246E-2
1.10815E0,-4.40673E-2
1.11096E0,-4.30908E-2
1.10876E0,-4.29687E-2
1.11090E0,-4.24804E-2
1.11145E0,-4.46777E-2
1.10833E0,-4.40063E-2
1.10907E0,-4.47387E-2
1.10974E0,-4.35180E-2
1.11151E0,-4.32739E-2
1.11010E0,-4.34570E-2
1.11053E0,-4.32739E-2
1.11254E0,-4.26635E-2
1.11047E0,-4.49829E-2
1.11120E0,-4.44335E-2
1.11151E0,-4.35180E-2
1.11340E0,-4.51660E-2
1.11218E0,-4.34570E-2
1.11187E0,-4.47387E-2
1.11175E0,-4.38842E-2
1.11224E0,-4.35180E-2
1.11218E0,-4.44946E-2
1.11218E0,-4.36401E-2
1.11352E0,-4.41894E-2
1.11358E0,-4.23584E-2
1.11248E0,-4.25415E-2
1.11261E0,-4.28466E-2
1.11340E0,-4.40063E-2
1.11242E0,-4.28466E-2
1.11236E0,-4.32739E-2
1.11401E0,-4.35180E-2
1.11206E0,-4.38232E-2
1.11389E0,-4.29077E-2
1.11108E0,-4.28466E-2
1.112E0,-4.27856E-2
1.11108E0,-4.32128E-2
1.11242E0,-4.21142E-2
1.11242E0,-4.14428E-2
1.11157E0,-4.20532E-2
1.11267E0,-4.29077E-2
1.11151E0,-4.23584E-2
1.11218E0,-4.16870E-2
1.11236E0,-4.19921E-2
1.11126E0,-4.15039E-2
1.11242E0,-4.08935E-2
1.11132E0,-4.13818E-2
1.11230E0,-4.22973E-2
1.11224E0,-4.18090E-2
1.11126E0,-4.15039E-2
1.11230E0,-4.15039E-2
1.11157E0,-4.08935E-2
1.11248E0,-4.15039E-2
1.11084E0,-4.18090E-2
1.11077E0,-4.24194E-2
1.11035E0,-4.26025E-2
1.11077E0,-4.23584E-2
1.11035E0,-4.18701E-2
1.11065E0,-4.3396E-2
1.10974E0,-4.30908E-2
1.11059E0,-4.23584E-2
1.10986E0,-4.27246E-2
1.11022E0,-4.39453E-2
1.11022E0,-4.33349E-2
1.10961E0,-4.32128E-2
1.10949E0,-4.35791E-2
1.10937E0,-4.47998E-2
1.10827E0,-4.35791E-2
1.10888E0,-4.35791E-2
1.10852E0,-4.43115E-2
1.10913E0,-4.38232E-2
1.10803E0,-4.34570E-2
1.10803E0,-4.43115E-2
1.10888E0,-4.27246E-2
1.10766E0,-4.44335E-2
1.10791E0,-4.35791E-2
1.10852E0,-4.39453E-2
1.10827E0,-4.35791E-2
1.10742E0,-4.47998E-2
1.10900E0,-4.47998E-2
1.10925E0,-4.41894E-2
1.10864E0,-4.39453E-2
1.10839E0,-4.30908E-2
1.10949E0,-4.33349E-2
1.11022E0,-4.24804E-2
1.10961E0,-4.28466E-2
1.10876E0,-4.38232E-2
1.10888E0,-4.26025E-2
1.10876E0,-4.30908E-2
1.10876E0,-4.49218E-2
1.10925E0,-4.34570E-2
1.11096E0,-4.34570E-2
1.11010E0,-4.34570E-2
1.10949E0,-4.33349E-2
1.10888E0,-4.26025E-2
1.11010E0,-4.45556E-2
1.10815E0,-4.30908E-2
1.11022E0,-4.37011E-2
1.10888E0,-4.23584E-2
1.10974E0,-4.38232E-2
1.10852E0,-4.19921E-2
1.10839E0,-4.27246E-2
1.10839E0,-4.18090E-2
1.10778E0,-4.29687E-2
1.10858E0,-4.16870E-2
1.10870E0,-4.19921E-2
1.10736E0,-4.31518E-2
1.10705E0,-4.43115E-2
1.10742E0,-4.41894E-2
1.10620E0,-4.47998E-2
1.10815E0,-4.46167E-2
1.10717E0,-4.46777E-2
1.10821E0,-4.65087E-2
1.10778E0,-4.32739E-2
1.10778E0,-4.26025E-2
1.10711E0,-4.38842E-2
1.10784E0,-4.34570E-2
1.10650E0,-4.29077E-2
1.10809E0,-4.52270E-2
1.10809E0,-4.50439E-2
1.10656E0,-4.43115E-2
1.10461E0,-4.54101E-2
1.10675E0,-4.44946E-2
1.1073E0,-4.37622E-2
1.10589E0,-4.51660E-2
1.10778E0,-4.58984E-2
1.10510E0,-4.66308E-2
1.10839E0,-4.65698E-2
1.10559E0,-4.59594E-2
1.10784E0,-4.71801E-2
1.10595E0,-4.69360E-2
1.10699E0,-4.84008E-2
1.10766E0,-4.76074E-2
1.10571E0,-4.69970E-2
1.10424E0,-4.73632E-2
1.10498E0,-4.77905E-2
1.10357E0,-4.91943E-2
1.10534E0,-4.77905E-2
1.10528E0,-4.79736E-2
1.10327E0,-4.67529E-2
1.10327E0,-4.75463E-2
1.10400E0,-4.80346E-2
1.10473E0,-4.94995E-2
1.10449E0,-4.52270E-2
1.10357E0,-4.66918E-2
1.10589E0,-4.64477E-2
1.10272E0,-4.6875E-2
1.10400E0,-4.72412E-2
1.10601E0,-4.83398E-2
1.10394E0,-4.65698E-2
1.10583E0,-4.69970E-2
1.10412E0,-4.72412E-2
1.10363E0,-4.78515E-2
1.10424E0,-4.82177E-2
1.10461E0,-4.71191E-2
1.10327E0,-4.65087E-2
1.10644E0,-4.84619E-2
1.10449E0,-4.65087E-2
1.10644E0,-4.73632E-2
1.10559E0,-4.69970E-2
1.10424E0,-4.87060E-2
1.10412E0,-4.80957E-2
1.10595E0,-4.83398E-2
1.10485E0,-4.83398E-2
1.10424E0,-4.80957E-2
1.10192E0,-4.88281E-2
1.10351E0,-5.07812E-2
1.10192E0,-4.89502E-2
1.10351E0,-4.88281E-2
1.10131E0,-4.93164E-2
1.10253E0,-4.94384E-2
1.10229E0,-5.04150E-2
1.10205E0,-4.88281E-2
1.10253E0,-4.83398E-2
1.10131E0,-5.05371E-2
END
BEGIN
1.41561E-5,1.54264E-5
2.75354E-5,-1.06524E-5
1.40396E-7,-6.00295E-7
-4.57987E-5,2.26572E-5
-1.36764E-5,2.86568E-6
3.57627E-5,-4.05646E-5
-2.23256E-5,-2.42851E-5
-6.68503E-6,-9.39518E-6
4.25502E-5,-8.37072E-6
-1.47074E-5,-4.43235E-5
0.34607E-5,-3.69064E-5
3.76999E-5,-1.44541E-5
1.01327E-6,-1.42473E-5
4.76166E-5,-7.07805E-6
-5.51343E-6,-4.53926E-5
-3.97525E-5,-1.33514E-5
8.69706E-5,-1.99750E-5
-4.27067E-5,-5.57676E-6
0.58226E-5,5.37037E-5
-1.37724E-5,-4.37535E-6
-2.20295E-5,2.06586E-5
-1.98539E-5,2.22064E-5
-1.99470E-5,1.78813E-5
-2.49333E-5,-1.08033E-6
-8.24034E-5,-3.91975E-5
-4.57838E-6,-2.41734E-5
2.83960E-5,-2.94540E-5
-1.15213E-5,-1.59721E-6
-1.56574E-5,1.20634E-5
-3.80203E-5,-3.02717E-5
-1.30422E-5,-2.85096E-5
-6.61425E-5,-4.12166E-5
1.54431E-5,4.60669E-5
0.60182E-5,3.47308E-5
-1.20778E-5,3.12784E-6
4.27775E-5,-1.41449E-5
1.11293E-5,3.36095E-5
1.7385E-5,-4.17977E-6
1.36625E-5,4.33120E-5
-7.97212E-6,-3.22945E-5
2.72002E-5,-1.25961E-5
1.62208E-5,0.16782E-5
-2.53561E-5,-3.84431E-5
-1.36094E-5,6.44289E-6
6.06197E-5,-1.39493E-5
-7.54930E-6,-3.14842E-5
2.69599E-5,4.32059E-5
-4.26955E-5,-1.46403E-5
7.76071E-6,1.94786E-6
3.97525E-5,4.37125E-5
2.81352E-5,2.87722E-5
2.77990E-5,-1.95372E-5
2.56067E-5,0.64168E-5
6.29760E-5,-2.07237E-5
-3.19536E-6,-1.77603E-5
3.57758E-5,1.20308E-5
4.88124E-5,4.39025E-5
4.56571E-5,-5.65871E-6
-1.92839E-5,-1.97365E-5
4.51095E-5,2.63825E-5
-9.36910E-7,-1.96155E-5
1.06426E-5,-1.02692E-5
2.74162E-5,3.38126E-5
-2.09007E-5,-3.97022E-5
6.77183E-5,-4.18722E-6
-2.92174E-5,-3.94135E-5
4.24441E-5,-4.55044E-6
2.98256E-6,-8.96584E-6
6.86850E-6,6.31483E-6
9.06847E-5,-1.44578E-5
1.62152E-5,0.24447E-5
1.39363E-5,2.56057E-5
0.60014E-5,2.11810E-5
-3.67574E-5,-1.24387E-5
-1.18501E-5,-3.10782E-5
2.25529E-5,5.37373E-5
-2.13813E-5,-1.76560E-5
2.57082E-5,1.41430E-5
-6.60959E-6,1.70776E-5
3.9557E-5,-2.21040E-5
0.64903E-5,2.26367E-5
-1.00247E-5,-6.09085E-5
1.23120E-5,2.24169E-5
-6.53322E-6,1.12596E-5
0.58133E-5,-3.45967E-5
3.96855E-5,1.65104E-5
-2.08728E-5,0.31273E-5
6.16945E-5,-7.70762E-6
-3.16612E-5,-9.99495E-6
3.32165E-5,-2.29030E-5
-7.53812E-6,2.1277E-5
5.06006E-5,-9.74163E-6
1.63056E-5,-4.68455E-7
-3.38815E-5,2.83625E-5
1.02028E-4,0.63180E-5
2.46614E-5,1.64061E-5
-1.69202E-5,-2.23740E-5
-5.58048E-6,-6.98715E-5
-8.90530E-6,0.76089E-6
2.53170E-5,-5.08017E-5
6.37583E-5,-1.28261E-5
1.87940E-5,0.61206E-5
3.88696E-5,-5.09433E-5
2.14129E-5,-4.62457E-5
-9.84780E-6,2.16979E-5
3.33376E-5,0.36358E-5
-1.27507E-5,9.95677E-6
7.85067E-5,-2.35736E-5
3.31848E-5,0.33676E-5
-5.96605E-5,0.22612E-5
5.50746E-5,-4.11644E-6
6.05732E-6,8.71904E-6
-1.83284E-5,-1.68532E-5
-4.87826E-5,2.55517E-5
4.64096E-5,-1.04419E-5
0.62286E-5,7.40140E-5
-2.52835E-5,-2.23405E-5
6.07408E-6,9.76305E-6
2.06362E-5,-2.89809E-5
2.27894E-5,0.45746E-5
-3.29911E-5,-4.94495E-5
1.82241E-5,-2.48868E-5
2.28099E-5,-1.87009E-6
-1.16266E-5,2.99662E-5
2.47880E-5,-5.94221E-5
1.06208E-5,4.33549E-5
5.56632E-5,0.49732E-5
-1.68662E-5,1.43330E-5
2.85692E-5,1.16229E-5
-2.58572E-5,-1.03861E-5
0.13113E-5,-1.59740E-5
1.71884E-5,4.95910E-5
1.40909E-5,1.55065E-5
1.36606E-5,2.62931E-5
7.99894E-5,0.61839E-5
2.43037E-5,-3.298E-5
-1.9297E-5,-4.67374E-5
5.19305E-5,-2.73026E-5
-6.53788E-6,2.98935E-5
4.20510E-5,-2.06008E-6
2.21394E-5,-3.19033E-5
-2.29626E-5,2.70903E-5
6.46188E-5,1.99005E-5
0.07245E-5,2.11540E-5
1.76727E-5,5.54174E-5
2.41324E-5,2.31713E-5
0.28330E-5,-1.91927E-5
3.64352E-5,-2.0504E-5
0.76070E-5,2.87406E-5
2.55368E-5,-2.17799E-5
-4.72366E-5,-5.30332E-5
5.31375E-5,-1.30161E-5
-6.20782E-5,8.64267E-5
1.77472E-5,0.44014E-5
2.45682E-6,6.47082E-6
6.83218E-6,-9.92417E-6
4.87528E-5,0.67390E-5
-4.03523E-5,-7.44387E-5
3.57925E-5,-6.16647E-5
2.06790E-5,2.79545E-5
2.33054E-5,0.55357E-5
0.34906E-5,4.51616E-5
2.27112E-5,-2.23740E-5
-2.88384E-6,6.43357E-6
-4.99263E-5,-3.59490E-5
3.28049E-5,-2.25026E-5
4.91105E-5,-3.25068E-5
3.12253E-5,-1.00359E-5
-1.69985E-5,2.71555E-5
-2.47173E-6,-4.05404E-6
-4.03448E-6,-1.81365E-5
4.45917E-5,0.22053E-5
1.89170E-5,-8.17999E-5
1.42864E-5,2.78614E-5
3.50251E-5,4.21106E-5
3.34084E-5,2.59205E-5
4.59551E-5,-3.42018E-5
6.17057E-5,-3.87728E-5
1.89598E-5,-2.46241E-5
1.41449E-5,-5.89191E-5
-5.96046E-8,-4.10713E-5
-2.88449E-5,-7.70762E-6
0.93765E-5,3.05697E-5
6.77704E-5,-3.16649E-6
7.36024E-6,-1.29984E-5
2.65985E-5,-5.54882E-5
1.6056E-5,6.88880E-5
-5.62220E-5,-4.23416E-5
-5.84870E-7,-2.44658E-5
-4.56161E-6,-9.77143E-6
-5.68144E-5,2.71797E-5
0.40829E-5,-1.66334E-5
3.73348E-5,-8.64639E-6
1.96173E-5,2.44490E-5
0.47478E-5,1.71028E-5
-3.07709E-6,3.67276E-5
-2.46334E-5,0.54482E-5
5.66765E-5,-5.90086E-6
4.69014E-5,1.10119E-5
1.22459E-5,-4.36697E-6
2.67513E-5,-3.00854E-5
END
BEGIN
-9.60566E-6,-7.55302E-6
-1.49384E-5,-7.35074E-5
1.15800E-5,1.64322E-5
-9.65222E-6,-2.94596E-5
3.12402E-5,-4.62718E-5
-7.55861E-6,-3.28235E-5
2.89362E-6,4.30131E-6
0.12926E-5,-2.53524E-5
2.05338E-5,1.19134E-5
-1.94441E-5,0.21811E-5
4.60818E-5,-3.85753E-5
5.11389E-6,-9.96049E-7
1.57356E-5,-4.90583E-5
-1.74716E-5,-5.18783E-5
3.61688E-5,1.57915E-5
1.92225E-5,-3.02270E-5
4.54410E-5,-2.66358E-5
1.00873E-6,-1.71281E-6
0.95143E-5,-4.35859E-5
-2.24262E-6,-7.1235E-5
-1.01756E-5,4.11830E-6
-3.70778E-5,5.36553E-5
1.02780E-5,0.42188E-6
-4.15928E-6,-9.01240E-6
-1.22962E-5,2.46428E-6
4.56534E-6,-9.47527E-6
4.05050E-5,0.30435E-5
-4.66406E-5,-4.38019E-5
-3.28570E-6,3.1434E-5
-2.563E-6,9.14931E-6
-5.39608E-6,1.65104E-5
-3.78093E-6,-3.59444E-6
-1.04308E-5,-1.51563E-5
1.82781E-5,2.50432E-5
-1.25672E-5,-3.38330E-5
-1.93268E-5,-2.40467E-5
-1.03190E-6,2.87201E-5
-6.66901E-5,1.22450E-5
1.90511E-5,2.63825E-5
-1.18990E-5,-4.80469E-6
1.87456E-5,-3.07261E-5
-1.39232E-6,-1.27023E-5
-1.55745E-5,1.47260E-5
-3.18698E-6,5.71534E-5
-9.05711E-6,-1.47493E-5
3.22237E-5,0.10915E-5
-7.54930E-6,-1.99098E-5
2.10097E-5,0.20191E-5
1.71484E-5,-2.44956E-5
4.26210E-5,3.69735E-5
-3.26056E-6,1.64341E-5
0.57686E-5,-3.06777E-5
3.83984E-5,0.07040E-5
1.42110E-5,-1.78804E-5
-9.48458E-6,-1.24257E-5
-6.70552E-8,8.00639E-5
-4.57558E-6,-2.31685E-5
1.47856E-5,2.91690E-5
2.53077E-5,-6.07315E-6
3.45092E-5,2.11671E-5
-2.98339E-5,-2.66786E-5
0.89108E-5,1.84513E-5
0.78529E-5,-3.67164E-5
1.87922E-5,-4.47314E-5
2.81678E-5,-2.27987E-6
2.12322E-5,0.80363E-5
-1.29733E-6,2.48206E-5
2.18953E-5,3.68785E-5
3.03657E-5,0.07264E-5
-1.45239E-5,-1.54441E-5
1.05481E-5,-5.56558E-5
1.49160E-5,-2.75149E-5
8.01719E-5,1.07400E-5
2.71899E-5,0.52545E-5
4.21516E-5,-5.88390E-5
-1.46776E-5,-2.86195E-5
-3.11993E-7,-1.95326E-5
-5.04590E-6,4.82853E-5
2.14427E-5,-3.93241E-5
2.07424E-5,1.62366E-5
1.82157E-5,-2.10758E-6
0.49062E-5,-3.16686E-5
3.07858E-5,-1.76150E-5
2.84612E-5,-4.92893E-5
0.49406E-6,-5.58048E-6
-1.63130E-5,-2.05189E-5
1.20522E-5,2.21934E-6
1.81533E-5,-6.95884E-6
1.22208E-5,-2.08299E-5
4.22373E-5,-3.61502E-5
3.53381E-5,2.26050E-5
5.06378E-5,-9.46223E-6
6.16908E-5,0.26859E-5
5.03249E-5,-2.53915E-5
5.92209E-5,-1.47558E-5
0.19408E-5,-4.57279E-5
4.02517E-5,-2.45235E-5
2.33985E-5,1.75535E-5
2.23107E-5,-3.41683E-5
1.82390E-5,0.96615E-5
3.10633E-5,0.43828E-5
3.28440E-5,-6.21378E-6
-3.23355E-5,-6.38216E-5
6.47306E-5,-2.17557E-6
-1.75088E-7,-3.19182E-5
2.31415E-5,-6.84894E-6
2.07275E-5,-6.03534E-5
6.95325E-6,1.33439E-5
1.84085E-5,-2.35028E-5
-6.58594E-5,2.26050E-5
3.5353E-5,0.42393E-5
2.17109E-5,0.40605E-5
2.22548E-5,-3.65153E-5
-4.54410E-5,4.45209E-5
5.73881E-5,-2.65985E-5
5.45494E-5,-2.59578E-5
3.53008E-5,-1.60187E-7
1.69007E-5,-9.98936E-6
-1.27069E-5,-6.41867E-6
5.34318E-5,-2.77161E-5
4.34322E-6,1.30571E-6
-1.00433E-5,-4.53461E-6
-7.20284E-6,2.07237E-5
2.86735E-5,0.84526E-5
1.75945E-5,-4.87230E-5
2.84239E-5,1.43125E-5
2.50991E-5,0.51669E-5
2.74777E-5,-2.07573E-5
2.13254E-5,-1.42715E-5
-8.60355E-6,-1.02743E-5
5.77271E-5,0.68359E-5
1.18743E-5,-2.79918E-5
2.11708E-5,-4.25614E-5
8.22218E-6,-6.24917E-6
2.31917E-5,-2.01091E-5
2.50013E-6,-7.01379E-6
4.44874E-5,-1.69016E-5
3.62098E-5,-1.30869E-5
4.87789E-5,-3.27043E-5
-1.19134E-5,-3.26447E-5
-2.83122E-6,-3.08826E-5
6.41308E-6,-5.62146E-6
-1.26697E-5,-3.22274E-5
-6.05359E-6,-2.48253E-5
2.25435E-5,-3.04542E-6
2.74442E-5,2.59168E-5
1.64918E-5,1.01383E-5
4.83356E-5,-4.14215E-5
-3.28384E-6,2.26255E-5
2.48029E-5,4.67822E-5
-1.31595E-5,-1.34874E-5
7.19726E-5,2.88486E-5
-2.56449E-5,4.3042E-5
3.58000E-5,-4.29526E-6
3.55932E-5,-1.28075E-5
4.87528E-5,-4.89875E-6
-2.28360E-6,-1.55158E-5
0.43362E-5,4.81307E-5
2.43522E-5,-3.85083E-5
1.98073E-5,-6.46524E-6
2.32029E-5,-2.31862E-5
1.21705E-5,-1.51079E-5
7.45654E-5,-2.03475E-5
-2.36164E-5,1.01048E-5
2.45124E-5,-8.06003E-5
6.28121E-5,-1.56462E-5
3.28663E-5,-1.85817E-5
4.05572E-5,0.76666E-5
2.20816E-6,-1.01635E-5
0.41797E-5,-6.01708E-5
1.55288E-5,-7.95722E-6
3.44552E-5,-8.28690E-6
-1.97403E-5,-3.15085E-5
2.33463E-5,0.33602E-5
3.50400E-5,-1.36960E-5
-2.82377E-6,-3.62619E-5
-1.90008E-5,2.47396E-5
-1.93193E-5,-3.29576E-5
2.89157E-5,-6.61984E-6
-3.06479E-5,4.45842E-5
3.63662E-5,3.43397E-5
4.03709E-5,-1.25244E-5
4.16003E-5,1.35749E-5
7.90134E-5,1.70767E-5
1.79316E-5,1.18296E-5
-3.49655E-5,-2.53319E-7
2.02804E-5,-4.78699E-7
4.88050E-5,-7.97584E-6
5.67287E-5,5.12674E-5
7.09667E-5,4.90993E-5
8.33440E-6,-1.43051E-5
3.18102E-5,-3.23653E-5
2.33501E-5,-3.47979E-5
2.73808E-5,4.33698E-5
0.19073E-5,-3.18810E-5
2.15731E-5,3.92608E-5
3.22936E-6,-4.75207E-6
-7.86408E-6,8.28690E-6
-5.38677E-6,3.55169E-5
-2.60733E-5,3.19108E-5
-4.88665E-6,1.03451E-5
END
BEGIN
0.02197E-1,1.05627E0
-2.16064E-2,1.05749E0
-4.24804E-2,1.05407E0
-6.43310E-2,1.05615E0
-8.60595E-2,1.05127E0
-1.07543E-1,1.05175E0
-1.30004E-1,1.04895E0
-1.51489E-1,1.04553E0
-1.73706E-1,1.04345E0
-1.95434E-1,1.04113E0
-2.17407E-1,1.03820E0
-2.38037E-1,1.03405E0
-2.60986E-1,1.02966E0
-2.81005E-1,1.02063E0
-3.03405E-1,1.01574E0
-3.26538E-1,1.01153E0
-3.46496E-1,1.00378E0
-3.67675E-1,9.98046E-1
-3.89404E-1,9.88830E-1
-4.09057E-1,9.81628E-1
-4.30786E-1,9.72045E-1
-4.49768E-1,9.63745E-1
-4.71069E-1,9.53613E-1
-4.89807E-1,9.44580E-1
-5.10314E-1,9.3396E-1
-5.32836E-1,9.23034E-1
-5.50537E-1,9.13085E-1
-5.69519E-1,8.99047E-1
-5.91064E-1,8.86901E-1
-6.07299E-1,8.75976E-1
-6.26464E-1,8.62487E-1
-6.45446E-1,8.49762E-1
-6.66076E-1,8.34564E-1
-6.82281E-1,8.20343E-1
-7.00012E-1,8.06335E-1
-7.17041E-1,7.90649E-1
-7.34985E-1,7.74231E-1
-7.50091E-1,7.58606E-1
-7.66418E-1,7.41302E-1
-7.82745E-1,7.25982E-1
-7.98706E-1,7.08557E-1
-8.125E-1,6.92596E-1
-8.28735E-1,6.73492E-1
-8.41888E-1,6.56097E-1
-8.56658E-1,6.37725E-1
-8.69018E-1,6.19110E-1
-8.82537E-1,6.00891E-1
-8.94165E-1,5.81481E-1
-9.06951E-1,5.60241E-1
-9.20349E-1,5.40252E-1
-9.29931E-1,5.22460E-1
-9.40185E-1,5.02014E-1
-9.50683E-1,4.79278E-1
-9.61853E-1,4.60998E-1
-9.71801E-1,4.39361E-1
-9.79797E-1,4.1922E-1
-9.88891E-1,3.96362E-1
-9.96398E-1,3.75030E-1
-1.00262E0,3.52844E-1
-1.01062E0,3.30749E-1
-1.01733E0,3.09814E-1
-1.02349E0,2.87170E-1
-1.02929E0,2.63488E-1
-1.03521E0,2.42553E-1
-1.04034E0,2.18444E-1
-1.04327E0,1.96289E-1
-1.04577E0,1.72729E-1
-1.05157E0,1.51855E-1
-1.05377E0,1.30127E-1
-1.05712E0,1.05590E-1
-1.05841E0,0.82336E-1
-1.05963E0,0.58166E-1
-1.05999E0,0.35095E-1
-1.06195E0,0.12390E-1
-1.06018E0,-1.34277E-2
-1.05963E0,-3.56445E-2
-1.05926E0,-6.00585E-2
-1.05719E0,-8.00781E-2
-1.05804E0,-1.04919E-1
-1.05151E0,-1.26525E-1
-1.04840E0,-1.50268E-1
-1.04595E0,-1.74804E-1
-1.04113E0,-1.96472E-1
-1.03735E0,-2.19604E-1
-1.03216E0,-2.41577E-1
-1.02575E0,-2.65136E-1
-1.01916E0,-2.88330E-1
-1.01184E0,-3.0896E-1
-1.00439E0,-3.32031E-1
-9.94018E-1,-3.53881E-1
-9.86938E-1,-3.74755E-1
-9.79003E-1,-3.97216E-1
-9.69482E-1,-4.20043E-1
-9.59716E-1,-4.40673E-1
-9.47753E-1,-4.60937E-1
-9.37622E-1,-4.82177E-1
-9.27734E-1,-5.02807E-1
-9.15527E-1,-5.24047E-1
-9.01977E-1,-5.41870E-1
-8.88305E-1,-5.64575E-1
-8.78051E-1,-5.83129E-1
-8.63647E-1,-6.02417E-1
-8.49731E-1,-6.20849E-1
-8.35815E-1,-6.38427E-1
-8.20434E-1,-6.55273E-1
-8.06640E-1,-6.75415E-1
-7.90405E-1,-6.91650E-1
-7.73925E-1,-7.09228E-1
-7.58056E-1,-7.27050E-1
-7.40844E-1,-7.42065E-1
-7.24121E-1,-7.59155E-1
-7.04711E-1,-7.72583E-1
-6.90307E-1,-7.89062E-1
-6.70410E-1,-8.04687E-1
-6.54907E-1,-8.18359E-1
-6.34399E-1,-8.33618E-1
-6.15722E-1,-8.46069E-1
-5.94726E-1,-8.58276E-1
-5.74585E-1,-8.70239E-1
-5.55175E-1,-8.84887E-1
-5.36254E-1,-8.93310E-1
-5.16967E-1,-9.04418E-1
-4.95361E-1,-9.18823E-1
-4.75219E-1,-9.28833E-1
-4.54223E-1,-9.36157E-1
-4.34082E-1,-9.44213E-1
-4.12475E-1,-9.57275E-1
-3.90380E-1,-9.61425E-1
-3.68896E-1,-9.71313E-1
-3.46313E-1,-9.78271E-1
-3.25805E-1,-9.84008E-1
-3.02856E-1,-9.89868E-1
-2.80639E-1,-9.97070E-1
-2.60376E-1,-1.00305E0
-2.36694E-1,-1.00854E0
-2.14111E-1,-1.01123E0
-1.93237E-1,-1.01586E0
-1.72241E-1,-1.01855E0
-1.49414E-1,-1.02233E0
-1.27441E-1,-1.02453E0
-1.02172E-1,-1.02832E0
-8.08105E-2,-1.02880E0
-5.90820E-2,-1.02990E0
-3.64990E-2,-1.03039E0
-1.14746E-2,-1.03039E0
0.06469E-1,-1.03064E0
0.31372E-1,-1.03002E0
0.52490E-1,-1.02893E0
0.75195E-1,-1.02648E0
0.96008E-1,-1.02545E0
1.18286E-1,-1.02215E0
1.40686E-1,-1.02008E0
1.60827E-1,-1.01623E0
1.85302E-1,-1.01171E0
2.05932E-1,-1.00738E0
2.29980E-1,-1.00213E0
2.49816E-1,-9.94140E-1
2.70202E-1,-9.91394E-1
2.91748E-1,-9.85473E-1
3.12927E-1,-9.78027E-1
3.34228E-1,-9.71130E-1
3.53332E-1,-9.60388E-1
3.76159E-1,-9.52819E-1
3.94775E-1,-9.45678E-1
4.13879E-1,-9.375E-1
4.36340E-1,-9.27368E-1
4.54895E-1,-9.16748E-1
4.75524E-1,-9.06921E-1
4.93042E-1,-8.95141E-1
5.12817E-1,-8.85192E-1
5.30761E-1,-8.73718E-1
5.51330E-1,-8.62976E-1
5.70312E-1,-8.50341E-1
5.87829E-1,-8.38439E-1
6.05957E-1,-8.23547E-1
6.22375E-1,-8.13415E-1
6.39831E-1,-7.97302E-1
6.56189E-1,-7.84057E-1
6.71814E-1,-7.70629E-1
6.87988E-1,-7.55859E-1
7.04834E-1,-7.40234E-1
7.18994E-1,-7.26928E-1
7.34741E-1,-7.10876E-1
7.48901E-1,-6.94458E-1
7.63427E-1,-6.78649E-1
7.76672E-1,-6.63391E-1
7.90161E-1,-6.46301E-1
8.04199E-1,-6.29943E-1
8.17810E-1,-6.12365E-1
8.29467E-1,-5.95459E-1
8.42773E-1,-5.78186E-1
8.53210E-1,-5.59997E-1
8.66149E-1,-5.43396E-1
8.75671E-1,-5.23681E-1
8.87512E-1,-5.05432E-1
8.98254E-1,-4.86694E-1
9.06372E-1,-4.68017E-1
9.16748E-1,-4.50134E-1
9.27429E-1,-4.31335E-1
9.35913E-1,-4.10949E-1
9.44824E-1,-3.92150E-1
END

