CITIFILE A.01.00
#NA VERSION HP8753E.07.12
NAME DATA
VAR FREQ MAG 201
DATA S[1,1] RI
DATA S[2,1] RI
DATA S[1,2] RI
DATA S[2,2] RI
SEG_LIST_BEGIN
SEG 5675000000 5925000000 201
SEG_LIST_END
BEGIN
1.10876E0,-4.24804E-2
1.10754E0,-4.04052E-2
1.10888E0,-4.17480E-2
1.10705E0,-4.13818E-2
1.10888E0,-4.06494E-2
1.10815E0,-4.10156E-2
1.10839E0,-4.15039E-2
1.10791E0,-4.11377E-2
1.10937E0,-4.02832E-2
1.10864E0,-4.22363E-2
1.10937E0,-4.12597E-2
1.10925E0,-4.28466E-2
1.10937E0,-4.29687E-2
1.10913E0,-4.15039E-2
1.10913E0,-4.11377E-2
1.10839E0,-4.24804E-2
1.10925E0,-4.13818E-2
1.10937E0,-4.27246E-2
1.11059E0,-4.41894E-2
1.10974E0,-4.32128E-2
1.10961E0,-4.27246E-2
1.10778E0,-4.27246E-2
1.10925E0,-4.32128E-2
1.11145E0,-4.11377E-2
1.11010E0,-4.33349E-2
1.10888E0,-4.38232E-2
1.10949E0,-4.37011E-2
1.10949E0,-4.35791E-2
1.10852E0,-4.30908E-2
1.10925E0,-4.26025E-2
1.10949E0,-4.24804E-2
1.10998E0,-4.26025E-2
1.10907E0,-4.44335E-2
1.10894E0,-4.32739E-2
1.10974E0,-4.40063E-2
1.11145E0,-4.29687E-2
1.11077E0,-4.41284E-2
1.11041E0,-4.32739E-2
1.11047E0,-4.29077E-2
1.11218E0,-4.24804E-2
1.11187E0,-4.43725E-2
1.11248E0,-4.32128E-2
1.11108E0,-4.37622E-2
1.11212E0,-4.43725E-2
1.11120E0,-4.16259E-2
1.11242E0,-4.51660E-2
1.11248E0,-4.40063E-2
1.11224E0,-4.30297E-2
1.11187E0,-4.30297E-2
1.11407E0,-4.41894E-2
1.11395E0,-4.36401E-2
1.11261E0,-4.40063E-2
1.11334E0,-4.25415E-2
1.11248E0,-4.39453E-2
1.11309E0,-4.36401E-2
1.11328E0,-4.30297E-2
1.11279E0,-4.32128E-2
1.11291E0,-4.32128E-2
1.11364E0,-4.25415E-2
1.11291E0,-4.22973E-2
1.11254E0,-4.19311E-2
1.11187E0,-4.28466E-2
1.11181E0,-4.23584E-2
1.11163E0,-4.21752E-2
1.11358E0,-4.21752E-2
1.11279E0,-4.25415E-2
1.11254E0,-4.24194E-2
1.11322E0,-4.11377E-2
1.11236E0,-4.17480E-2
1.11181E0,-4.22973E-2
1.11138E0,-4.07714E-2
1.11224E0,-4.16259E-2
1.11151E0,-4.20532E-2
1.11157E0,-4.15039E-2
1.11102E0,-4.10766E-2
1.11084E0,-4.15039E-2
1.11151E0,-4.18701E-2
1.11145E0,-4.14428E-2
1.11145E0,-4.07104E-2
1.11126E0,-4.11987E-2
1.10998E0,-4.30297E-2
1.11016E0,-4.24194E-2
1.11084E0,-4.18701E-2
1.10949E0,-4.18701E-2
1.11065E0,-4.24194E-2
1.10949E0,-4.33349E-2
1.11071E0,-4.23584E-2
1.10974E0,-4.29687E-2
1.10986E0,-4.38232E-2
1.10949E0,-4.33349E-2
1.10974E0,-4.27246E-2
1.10913E0,-4.29687E-2
1.10876E0,-4.39453E-2
1.10864E0,-4.29687E-2
1.10900E0,-4.30908E-2
1.10803E0,-4.37011E-2
1.10913E0,-4.35791E-2
1.10827E0,-4.27246E-2
1.10803E0,-4.44335E-2
1.10888E0,-4.29687E-2
1.1073E0,-4.41894E-2
1.10815E0,-4.30908E-2
1.10852E0,-4.37011E-2
1.10803E0,-4.34570E-2
1.10754E0,-4.41894E-2
1.10852E0,-4.50439E-2
1.10864E0,-4.37011E-2
1.10864E0,-4.32128E-2
1.10815E0,-4.23584E-2
1.10913E0,-4.34570E-2
1.10986E0,-4.27246E-2
1.10961E0,-4.21142E-2
1.10900E0,-4.33349E-2
1.10876E0,-4.32128E-2
1.10852E0,-4.28466E-2
1.10925E0,-4.50439E-2
1.10900E0,-4.26025E-2
1.11108E0,-4.33349E-2
1.11071E0,-4.22363E-2
1.10949E0,-4.30908E-2
1.10937E0,-4.22363E-2
1.11132E0,-4.39453E-2
1.10791E0,-4.21142E-2
1.11084E0,-4.32128E-2
1.10949E0,-4.26025E-2
1.10937E0,-4.29687E-2
1.10913E0,-4.26025E-2
1.10827E0,-4.26635E-2
1.10900E0,-4.08935E-2
1.10864E0,-4.29687E-2
1.10949E0,-4.21752E-2
1.10907E0,-4.21142E-2
1.10803E0,-4.30908E-2
1.10876E0,-4.37011E-2
1.10858E0,-4.40063E-2
1.10668E0,-4.44335E-2
1.10778E0,-4.43725E-2
1.10656E0,-4.39453E-2
1.10845E0,-4.59594E-2
1.10974E0,-4.39453E-2
1.10754E0,-4.29687E-2
1.10717E0,-4.35180E-2
1.10809E0,-4.43115E-2
1.10736E0,-4.32128E-2
1.10797E0,-4.50439E-2
1.10827E0,-4.21142E-2
1.10711E0,-4.43725E-2
1.10559E0,-4.55322E-2
1.10687E0,-4.56543E-2
1.10754E0,-4.46167E-2
1.10595E0,-4.46167E-2
1.10815E0,-4.60205E-2
1.10662E0,-4.54101E-2
1.10925E0,-4.73632E-2
1.10504E0,-4.70581E-2
1.10723E0,-4.68139E-2
1.10711E0,-4.85839E-2
1.10705E0,-4.80346E-2
1.10821E0,-4.74853E-2
1.10705E0,-4.53491E-2
1.10644E0,-4.69970E-2
1.10461E0,-4.6875E-2
1.10583E0,-4.85229E-2
1.10559E0,-4.58374E-2
1.10546E0,-4.80957E-2
1.10479E0,-4.71801E-2
1.10485E0,-4.67529E-2
1.10369E0,-4.79126E-2
1.10369E0,-4.77294E-2
1.10522E0,-4.45556E-2
1.10321E0,-4.66918E-2
1.10376E0,-4.71191E-2
1.10449E0,-4.71801E-2
1.10424E0,-4.74853E-2
1.10406E0,-4.66308E-2
1.10467E0,-4.58984E-2
1.10705E0,-4.6875E-2
1.10412E0,-4.67529E-2
1.10412E0,-4.71191E-2
1.10473E0,-4.43115E-2
1.10412E0,-4.63867E-2
1.10583E0,-4.66308E-2
1.10546E0,-4.61425E-2
1.10693E0,-4.58984E-2
1.10461E0,-4.71191E-2
1.10449E0,-4.78515E-2
1.10412E0,-4.85839E-2
1.10400E0,-4.6875E-2
1.10485E0,-4.73632E-2
1.10400E0,-4.6875E-2
1.10437E0,-4.83398E-2
1.10363E0,-4.89502E-2
1.10437E0,-4.83398E-2
1.10351E0,-4.82177E-2
1.10363E0,-4.80957E-2
1.10217E0,-4.80957E-2
1.10229E0,-4.93164E-2
1.10351E0,-4.83398E-2
1.10278E0,-4.85839E-2
1.10168E0,-4.89502E-2
1.10168E0,-4.94384E-2
END
BEGIN
3.32705E-5,-5.60656E-5
2.01165E-5,1.13695E-5
2.22735E-5,3.26335E-5
-2.21785E-5,2.02693E-5
1.89207E-5,-6.32368E-6
-9.84594E-6,-2.39759E-5
-1.78068E-6,-1.04168E-5
-1.43647E-5,-1.82911E-5
5.12152E-5,-1.7602E-5
-1.29267E-6,-3.48240E-5
-2.08243E-5,-6.25848E-5
1.70785E-5,-5.22285E-6
-3.82550E-5,1.28224E-5
7.72625E-5,6.12586E-5
3.12551E-6,1.51786E-5
8.53836E-6,-8.48248E-6
5.36404E-5,-2.00308E-5
-2.66879E-5,-1.83098E-5
-2.85729E-6,4.46550E-5
-9.49204E-6,1.30133E-5
-2.48849E-6,2.86800E-6
0.46063E-5,-1.61826E-5
2.22809E-5,1.86339E-5
-2.15172E-5,-1.74008E-5
-4.27365E-5,-4.69833E-5
0.12181E-5,-2.47433E-5
6.67572E-5,-6.10947E-7
-9.97819E-6,-1.36047E-5
-1.75461E-5,-2.34656E-5
-2.69655E-5,0.16801E-5
1.38226E-5,4.55975E-6
-1.77007E-5,-2.69822E-5
-7.87375E-7,-5.96046E-7
0.55618E-5,1.90856E-5
-7.46268E-6,2.39508E-5
2.17286E-5,-1.25393E-5
1.92988E-5,1.52010E-5
4.81978E-5,2.24523E-5
4.22745E-5,3.88622E-5
-2.76547E-5,-2.07927E-5
2.11279E-5,3.23299E-5
1.88238E-5,6.34454E-5
-1.88313E-6,-5.16492E-5
-7.75512E-6,-1.73971E-5
1.18389E-5,-4.94998E-5
-4.64469E-5,-1.82706E-5
3.65171E-6,1.58324E-6
-4.52995E-6,-3.46917E-5
4.3571E-5,1.84848E-5
-5.61215E-6,-5.81378E-6
3.77334E-5,3.40491E-5
4.47016E-5,-4.35300E-5
1.05863E-5,1.13491E-5
4.06685E-6,1.86543E-6
-5.62518E-7,-4.99673E-5
4.71100E-5,5.54099E-5
5.89862E-5,3.92757E-5
3.63271E-5,1.70376E-5
-2.00681E-5,-4.50387E-6
6.01187E-5,1.44839E-5
5.41042E-5,-1.83694E-5
2.49967E-5,4.20138E-5
6.05564E-5,0.87413E-5
1.82902E-5,-1.29407E-5
5.60376E-5,-7.36676E-6
-4.88534E-5,-7.96243E-5
3.42037E-5,-5.11910E-5
-2.69692E-5,-1.81552E-5
5.14760E-5,-1.28466E-5
6.25923E-5,0.67204E-5
3.68189E-5,2.06939E-5
1.88341E-5,-2.58162E-5
5.23328E-5,-2.34711E-5
3.25925E-5,-2.13384E-5
-7.28182E-5,-5.03398E-5
3.30507E-5,3.80687E-5
0.60023E-6,1.38999E-5
0.24782E-5,2.20155E-5
-7.30343E-6,9.09017E-6
2.51885E-5,-2.25827E-5
5.86845E-5,-6.18398E-7
3.47606E-5,-5.55999E-6
5.71105E-5,-2.43634E-6
-3.49991E-6,5.82728E-6
-6.19888E-6,-8.05854E-5
4.04939E-5,3.23653E-5
-9.05990E-6,-4.42192E-5
7.46399E-5,2.89753E-5
-6.3546E-5,-2.77832E-5
5.21727E-5,-3.88063E-5
-2.23349E-5,1.51470E-5
5.27091E-5,0.69327E-5
3.58112E-5,1.28336E-5
-2.94912E-5,2.31582E-5
7.08997E-5,-1.57058E-5
3.71597E-5,3.01562E-5
-4.96208E-6,-5.78910E-5
-2.67401E-5,-4.50611E-5
1.00918E-5,2.33762E-5
8.74251E-5,-2.83271E-5
4.02107E-5,1.33551E-5
3.01897E-5,-2.55852E-5
3.64966E-5,-5.92470E-5
3.62470E-5,-3.87057E-6
1.59256E-5,4.69386E-5
2.60099E-5,-3.39783E-5
1.2476E-5,-3.58223E-5
1.42250E-5,-2.52518E-5
2.96905E-5,0.30398E-5
-3.38852E-5,-3.65227E-5
1.09069E-4,-1.19283E-5
-2.05896E-5,2.58162E-5
-2.19065E-5,2.30837E-5
-6.28717E-5,4.41968E-5
5.30555E-5,-1.49086E-5
2.03046E-5,0.18421E-5
0.11362E-5,-3.24882E-5
-4.16627E-6,6.84103E-6
4.15779E-5,-3.87020E-5
3.02698E-5,-1.18184E-5
1.67209E-5,-2.18153E-5
4.43495E-5,2.07088E-5
-1.67675E-5,-3.30992E-5
4.39435E-5,2.80886E-5
-2.19717E-5,-4.46960E-5
1.38208E-5,3.00221E-5
4.66778E-5,1.61714E-5
2.43708E-5,-2.27764E-5
6.79642E-5,-2.71126E-5
1.18184E-5,-1.51470E-5
4.64208E-5,-3.73907E-5
-1.42678E-5,5.42253E-5
1.10734E-6,5.59585E-6
1.63633E-6,2.56160E-6
1.00813E-4,1.39251E-5
-1.53295E-6,-1.47800E-5
1.97794E-5,-2.21654E-5
6.44512E-5,-1.94311E-5
4.32841E-5,0.88736E-5
5.06527E-5,1.22487E-5
5.08241E-5,-3.71076E-5
5.14537E-5,1.44317E-5
3.47420E-5,2.20872E-5
-1.22729E-5,1.53444E-5
5.63412E-5,5.06043E-5
3.58596E-5,6.17876E-5
4.69014E-5,-6.21452E-5
1.90604E-5,-2.52425E-5
3.39951E-5,-1.61491E-5
6.37211E-5,-5.68963E-5
4.26620E-5,-2.53059E-5
6.60121E-5,0.87879E-5
-1.17942E-5,3.72938E-5
1.83526E-5,-1.36904E-6
9.45199E-6,2.27708E-6
1.13043E-5,-2.39498E-5
6.99311E-5,-3.37325E-5
-2.06828E-5,-5.05372E-5
-7.24196E-6,-5.59687E-5
-2.14017E-6,2.58386E-5
1.82557E-5,-1.10641E-6
-1.21891E-5,2.87462E-5
2.26497E-5,-3.08938E-5
1.34436E-5,-1.20373E-5
1.26631E-5,-7.55582E-6
3.44440E-5,3.78191E-5
0.85085E-5,-3.99500E-5
-2.64868E-6,-5.01796E-5
2.99420E-6,-7.84825E-6
1.11479E-5,-2.06418E-5
1.81049E-5,3.37585E-5
4.14475E-5,-7.04079E-7
2.27615E-5,-3.81991E-5
2.58274E-5,1.83619E-5
4.05535E-5,-4.96693E-5
1.10128E-5,5.94276E-6
2.24486E-5,-4.61153E-5
3.53641E-5,2.44490E-5
1.41542E-5,1.59088E-5
0.24735E-5,-3.31252E-5
3.79756E-5,-8.41468E-5
4.04417E-5,1.60336E-5
-1.30236E-5,6.46859E-5
3.03480E-5,-2.78521E-5
-3.74801E-5,1.42790E-5
-4.14718E-6,-4.34275E-6
3.45930E-5,5.24744E-5
-2.34022E-5,-4.73707E-5
-9.68016E-6,1.92374E-5
2.99625E-5,-4.33437E-5
-3.74391E-6,-1.09635E-5
1.68345E-5,-1.44895E-5
-1.39437E-5,-3.09869E-5
2.35065E-5,-1.18855E-5
2.76342E-5,4.47779E-5
-2.87853E-5,1.51358E-5
-3.37548E-5,2.29012E-5
4.46736E-5,-1.93528E-5
5.63636E-5,2.77757E-5
1.09453E-6,2.35927E-6
2.47880E-5,-1.93864E-5
END
BEGIN
-1.16899E-5,-2.72281E-5
1.35786E-5,-5.87999E-5
0.58449E-5,3.89218E-5
8.92765E-6,1.69687E-6
1.83228E-5,-1.33607E-5
0.91567E-5,-4.54410E-5
-2.23219E-5,-2.53617E-5
2.55256E-5,-1.74567E-5
-4.43309E-6,-3.68394E-5
1.49756E-5,2.76640E-5
1.80844E-5,-7.47293E-6
2.5725E-5,-1.28112E-5
-1.82837E-5,-3.69027E-5
3.33134E-6,9.24244E-6
0.73574E-5,-5.29550E-5
5.96232E-6,7.20284E-6
1.57877E-5,-2.60751E-5
-1.82539E-7,-1.12792E-5
0.58002E-5,-3.32482E-5
-6.90296E-6,-1.89486E-5
0.17099E-5,-2.30073E-5
1.53854E-5,4.18350E-5
3.08044E-5,2.63005E-5
-6.26966E-6,-5.20981E-6
-1.06543E-5,3.24025E-5
4.12501E-5,-4.00021E-5
-1.34073E-5,2.26087E-5
-3.33450E-5,-2.52090E-5
0.33117E-5,4.43384E-5
-3.1434E-5,1.08126E-5
2.80849E-5,0.31199E-5
-5.11109E-6,-3.41143E-5
0.40624E-5,-4.69628E-5
-3.59863E-6,3.19071E-5
0.18645E-5,-3.28198E-5
-4.78327E-6,-3.93353E-5
1.57784E-5,3.83686E-5
-4.44501E-5,-3.72305E-5
1.95298E-5,2.24839E-5
0.59511E-5,-4.24087E-5
1.49961E-5,-5.54770E-5
-3.70759E-6,1.65067E-5
2.82526E-5,1.23493E-5
4.35635E-5,7.36676E-5
3.98922E-5,-2.49147E-5
3.28011E-5,-3.26149E-6
-4.91459E-6,-2.49045E-5
1.83964E-5,-8.12578E-6
-6.65895E-8,-1.49249E-5
2.39349E-5,0.17834E-5
-4.54252E-6,5.73927E-6
4.25688E-5,0.05066E-5
3.84841E-5,-7.97212E-6
4.41800E-5,-1.50855E-5
-7.04452E-6,8.04895E-6
2.30781E-5,5.03920E-5
-9.63546E-6,-2.70288E-5
0.84731E-5,3.95421E-5
2.35429E-5,-6.16349E-6
0.63106E-5,2.62484E-5
3.52580E-5,-5.54453E-5
2.44071E-5,-1.54068E-5
2.90917E-5,-1.62189E-5
2.90079E-5,-2.69971E-5
2.35959E-5,-1.29966E-5
-6.83427E-6,1.19023E-6
1.00880E-5,6.38887E-5
-2.32551E-6,8.99098E-6
6.53676E-5,3.12663E-5
1.79568E-5,-1.55745E-5
0.70156E-5,-2.70996E-5
1.14059E-5,-2.34684E-5
1.62795E-5,3.92012E-5
7.66404E-5,2.23331E-5
1.92588E-5,-1.89356E-5
1.19078E-5,-5.41284E-6
0.32261E-5,-2.10935E-5
2.72393E-5,2.98377E-5
0.35474E-5,-2.87573E-5
-2.31992E-5,-1.49458E-5
4.81866E-5,2.24895E-5
2.16262E-5,-1.55121E-5
3.31066E-5,-3.10875E-6
5.71236E-5,-6.36130E-5
0.39860E-5,-7.07320E-5
0.01192E-5,2.73995E-5
2.63806E-5,-8.69296E-6
4.6473E-5,-1.77063E-5
0.26337E-5,-3.44105E-5
4.52026E-5,2.16141E-5
3.11173E-5,1.59554E-5
1.39037E-5,2.75299E-6
3.64780E-5,-3.06926E-5
0.07562E-5,-5.98579E-5
1.60541E-5,0.41443E-5
0.77970E-5,-5.15766E-5
4.74378E-5,-6.00181E-5
1.06114E-5,-1.11507E-5
2.40914E-5,-4.89018E-5
2.56933E-5,-1.27963E-6
0.8367E-5,2.78726E-5
-1.50464E-5,-3.76515E-5
2.76789E-5,-7.77691E-5
3.33525E-5,0.17844E-5
3.25441E-5,-2.64141E-5
4.50648E-5,-1.05388E-5
5.30257E-5,-8.25151E-6
1.90325E-5,0.97118E-5
1.09486E-5,-4.76390E-5
-4.39398E-5,3.15904E-5
3.63402E-6,-8.24686E-6
1.39717E-5,-2.69077E-5
0.80391E-5,-6.75246E-5
0.10766E-5,3.19220E-5
-1.02892E-5,-3.89926E-5
2.24579E-5,-3.3658E-6
5.00567E-5,-1.30385E-6
4.04976E-5,0.97751E-5
1.71065E-5,4.01660E-5
3.35518E-5,-9.92231E-6
-2.40281E-6,1.60895E-5
0.97826E-5,-3.67872E-5
-1.98762E-5,0.90096E-5
1.28801E-6,9.80775E-6
-8.59610E-6,-1.51358E-5
1.36867E-5,3.35127E-5
5.0921E-5,1.63838E-5
2.49408E-5,2.17184E-5
1.47521E-5,-3.27713E-5
4.45023E-5,-3.50959E-5
3.05976E-5,0.24884E-5
5.22844E-6,1.40518E-5
4.66778E-5,-3.19071E-5
3.39262E-5,-5.67324E-5
-4.94904E-6,-1.98651E-5
-1.44811E-5,-9.25734E-7
-1.23716E-5,-3.35797E-5
2.14818E-5,1.04829E-5
3.91267E-5,0.82105E-5
6.63660E-6,-1.30189E-5
3.55262E-5,-2.72169E-5
1.46422E-5,-2.56542E-5
-1.88872E-5,-5.11929E-5
-1.19721E-5,1.54320E-6
5.92619E-5,0.24177E-5
0.04321E-5,-4.57167E-5
-2.06399E-5,3.02419E-5
-8.78237E-6,-1.76746E-5
0.36489E-5,-3.01990E-5
-2.15764E-6,-8.69622E-7
-2.61142E-5,-3.16724E-5
2.11074E-5,-2.56728E-5
2.48104E-5,3.04654E-5
4.35859E-5,-2.77161E-6
0.53346E-5,-2.34339E-5
2.62428E-5,0.67912E-5
-1.07213E-5,-3.05101E-5
-1.56443E-5,1.83433E-5
4.92408E-5,-4.02331E-7
-3.36095E-5,-3.20300E-5
2.28043E-5,-2.34078E-5
-2.98637E-5,-3.26708E-6
6.26593E-5,2.08541E-5
-6.56768E-6,-9.17911E-6
4.63612E-5,-5.56111E-5
2.19922E-5,-7.15069E-6
0.60834E-5,-3.45818E-5
3.96110E-5,-6.33299E-8
-1.06841E-5,2.38027E-5
3.31364E-5,-5.87999E-5
2.77888E-5,-1.06319E-5
7.27735E-6,8.43685E-6
-4.46662E-6,-3.83108E-5
3.74317E-5,-3.53157E-6
3.15513E-5,-2.85562E-5
1.19730E-5,-5.95897E-5
-2.30502E-5,0.50813E-5
-2.31713E-5,1.27703E-5
0.41117E-6,-2.79000E-6
0.36284E-5,7.08103E-5
-2.45720E-5,-3.43434E-5
6.50771E-5,-1.52513E-5
6.27115E-5,4.60222E-5
3.21716E-5,0.67874E-5
0.07823E-5,2.34171E-5
-3.34456E-5,-8.45268E-6
-1.12047E-5,9.46503E-6
4.38615E-5,3.15830E-5
5.39533E-5,-5.41657E-6
6.29462E-5,0.97081E-5
4.48152E-5,0.62175E-5
-4.95836E-6,-4.30978E-5
5.49852E-5,3.92869E-5
-5.43668E-5,1.50129E-5
0.78044E-6,-7.52322E-6
-3.88547E-6,2.23126E-5
6.87986E-5,0.91195E-5
2.06250E-5,0.54668E-5
-8.00518E-6,1.79605E-6
-5.96791E-6,4.07919E-5
-2.07964E-5,-8.19377E-6
END
BEGIN
0.01098E-1,1.05627E0
-2.20947E-2,1.05700E0
-4.28466E-2,1.05542E0
-6.31103E-2,1.05566E0
-8.58154E-2,1.05334E0
-1.08276E-1,1.05139E0
-1.28662E-1,1.04931E0
-1.50634E-1,1.04565E0
-1.72973E-1,1.04382E0
-1.94946E-1,1.04138E0
-2.17773E-1,1.03845E0
-2.38647E-1,1.03344E0
-2.60864E-1,1.02966E0
-2.81127E-1,1.02124E0
-3.04138E-1,1.01678E0
-3.25500E-1,1.01239E0
-3.46069E-1,1.00408E0
-3.67004E-1,9.97924E-1
-3.88549E-1,9.89013E-1
-4.08874E-1,9.81567E-1
-4.30114E-1,9.72351E-1
-4.49890E-1,9.64843E-1
-4.71130E-1,9.53735E-1
-4.89624E-1,9.45129E-1
-5.09826E-1,9.34692E-1
-5.32592E-1,9.23645E-1
-5.50231E-1,9.13818E-1
-5.69397E-1,8.99231E-1
-5.91430E-1,8.88305E-1
-6.06567E-1,8.76281E-1
-6.25793E-1,8.62793E-1
-6.45355E-1,8.49578E-1
-6.65374E-1,8.34533E-1
-6.82098E-1,8.20648E-1
-6.98974E-1,8.07037E-1
-7.16888E-1,7.91076E-1
-7.34863E-1,7.74780E-1
-7.50122E-1,7.58636E-1
-7.66113E-1,7.41760E-1
-7.83111E-1,7.27050E-1
-7.97515E-1,7.09167E-1
-8.11859E-1,6.93420E-1
-8.28308E-1,6.74011E-1
-8.42254E-1,6.57196E-1
-8.56384E-1,6.38427E-1
-8.69964E-1,6.19903E-1
-8.82690E-1,6.00494E-1
-8.94683E-1,5.81543E-1
-9.07287E-1,5.61370E-1
-9.19982E-1,5.40802E-1
-9.30603E-1,5.23132E-1
-9.41070E-1,5.03295E-1
-9.51568E-1,4.79675E-1
-9.61181E-1,4.60968E-1
-9.71923E-1,4.40216E-1
-9.80102E-1,4.19097E-1
-9.88861E-1,3.97094E-1
-9.96032E-1,3.76525E-1
-1.00335E0,3.54309E-1
-1.01055E0,3.31848E-1
-1.01654E0,3.09997E-1
-1.02392E0,2.87475E-1
-1.03045E0,2.63427E-1
-1.03656E0,2.42492E-1
-1.03863E0,2.18689E-1
-1.04425E0,1.97021E-1
-1.04657E0,1.73278E-1
-1.04974E0,1.51916E-1
-1.05389E0,1.30310E-1
-1.05627E0,1.07238E-1
-1.05926E0,0.83313E-1
-1.05981E0,0.58776E-1
-1.06066E0,0.36254E-1
-1.06042E0,0.11718E-1
-1.06024E0,-1.19628E-2
-1.06121E0,-3.54003E-2
-1.05859E0,-5.88989E-2
-1.05883E0,-7.99560E-2
-1.05694E0,-1.04675E-1
-1.05328E0,-1.26647E-1
-1.04980E0,-1.50573E-1
-1.04638E0,-1.72668E-1
-1.04107E0,-1.96655E-1
-1.03479E0,-2.19848E-1
-1.03247E0,-2.41333E-1
-1.02600E0,-2.64282E-1
-1.01879E0,-2.87841E-1
-1.01184E0,-3.09326E-1
-1.00537E0,-3.30810E-1
-9.95605E-1,-3.53637E-1
-9.86816E-1,-3.74267E-1
-9.78271E-1,-3.97949E-1
-9.70703E-1,-4.18945E-1
-9.60327E-1,-4.41284E-1
-9.49707E-1,-4.61914E-1
-9.39575E-1,-4.82666E-1
-9.26879E-1,-5.01953E-1
-9.16503E-1,-5.23925E-1
-9.02954E-1,-5.42114E-1
-8.89038E-1,-5.62133E-1
-8.79150E-1,-5.83374E-1
-8.64624E-1,-6.00830E-1
-8.50830E-1,-6.20971E-1
-8.35327E-1,-6.38183E-1
-8.19458E-1,-6.54907E-1
-8.05786E-1,-6.75659E-1
-7.89428E-1,-6.92627E-1
-7.75268E-1,-7.08618E-1
-7.56958E-1,-7.26318E-1
-7.42309E-1,-7.41210E-1
-7.24365E-1,-7.59643E-1
-7.06420E-1,-7.71240E-1
-6.89819E-1,-7.88208E-1
-6.70288E-1,-8.04687E-1
-6.53808E-1,-8.17260E-1
-6.34399E-1,-8.34228E-1
-6.12793E-1,-8.47045E-1
-5.94970E-1,-8.58764E-1
-5.73852E-1,-8.69751E-1
-5.54199E-1,-8.84399E-1
-5.36254E-1,-8.93066E-1
-5.16235E-1,-9.06005E-1
-4.96826E-1,-9.17968E-1
-4.75830E-1,-9.25293E-1
-4.56420E-1,-9.37377E-1
-4.33349E-1,-9.44702E-1
-4.14306E-1,-9.56054E-1
-3.91357E-1,-9.61914E-1
-3.69751E-1,-9.72412E-1
-3.48754E-1,-9.78027E-1
-3.26904E-1,-9.84375E-1
-3.04199E-1,-9.88891E-1
-2.80395E-1,-9.97436E-1
-2.59033E-1,-1.00134E0
-2.37304E-1,-1.00732E0
-2.15087E-1,-1.01013E0
-1.94213E-1,-1.01525E0
-1.71264E-1,-1.01904E0
-1.48803E-1,-1.02221E0
-1.26586E-1,-1.02453E0
-1.03881E-1,-1.02746E0
-7.94677E-2,-1.02917E0
-5.94482E-2,-1.02941E0
-3.68652E-2,-1.03064E0
-1.14746E-2,-1.02978E0
0.05981E-1,-1.03039E0
0.31127E-1,-1.02929E0
0.52734E-1,-1.02856E0
0.73486E-1,-1.02612E0
0.96984E-1,-1.02667E0
1.18408E-1,-1.02276E0
1.40930E-1,-1.01928E0
1.61254E-1,-1.01574E0
1.84448E-1,-1.01098E0
2.05932E-1,-1.00793E0
2.28942E-1,-1.00329E0
2.49633E-1,-9.95300E-1
2.69775E-1,-9.91638E-1
2.91320E-1,-9.84680E-1
3.11523E-1,-9.78393E-1
3.33740E-1,-9.71313E-1
3.53759E-1,-9.61242E-1
3.75610E-1,-9.53613E-1
3.95019E-1,-9.46350E-1
4.14123E-1,-9.37194E-1
4.36096E-1,-9.27307E-1
4.54711E-1,-9.18029E-1
4.75524E-1,-9.07104E-1
4.92797E-1,-8.95690E-1
5.12390E-1,-8.85070E-1
5.31189E-1,-8.75061E-1
5.51269E-1,-8.62304E-1
5.69213E-1,-8.50280E-1
5.87280E-1,-8.39050E-1
6.05590E-1,-8.24279E-1
6.2146E-1,-8.13049E-1
6.39587E-1,-7.97424E-1
6.55822E-1,-7.84606E-1
6.71264E-1,-7.70813E-1
6.87622E-1,-7.55188E-1
7.04834E-1,-7.41149E-1
7.19116E-1,-7.27478E-1
7.34314E-1,-7.11425E-1
7.49023E-1,-6.94824E-1
7.62939E-1,-6.79382E-1
7.75756E-1,-6.64001E-1
7.90405E-1,-6.45813E-1
8.04321E-1,-6.29882E-1
8.17932E-1,-6.13098E-1
8.29162E-1,-5.95825E-1
8.42590E-1,-5.78918E-1
8.53454E-1,-5.60546E-1
8.66149E-1,-5.43884E-1
8.76220E-1,-5.24597E-1
8.87268E-1,-5.06164E-1
8.98437E-1,-4.86633E-1
9.06738E-1,-4.68322E-1
9.16809E-1,-4.51293E-1
9.27551E-1,-4.31640E-1
9.35424E-1,-4.11560E-1
9.44274E-1,-3.92944E-1
END

