CITIFILE A.01.00
#NA VERSION HP8753E.07.12
NAME DATA
VAR FREQ MAG 201
DATA S[1,1] RI
DATA S[2,1] RI
DATA S[1,2] RI
DATA S[2,2] RI
SEG_LIST_BEGIN
SEG 5675000000 5925000000 201
SEG_LIST_END
BEGIN
1.10876E0,-4.51660E-2
1.10717E0,-4.37011E-2
1.10803E0,-4.39453E-2
1.10803E0,-4.47998E-2
1.10998E0,-4.38232E-2
1.10827E0,-4.24804E-2
1.10803E0,-4.45556E-2
1.10876E0,-4.35791E-2
1.10925E0,-4.47998E-2
1.11010E0,-4.30908E-2
1.10852E0,-4.49218E-2
1.11059E0,-4.51660E-2
1.10925E0,-4.41894E-2
1.10913E0,-4.56543E-2
1.10900E0,-4.47998E-2
1.10937E0,-4.46777E-2
1.10949E0,-4.49218E-2
1.10827E0,-4.52880E-2
1.11071E0,-4.49218E-2
1.11084E0,-4.50439E-2
1.10900E0,-4.54101E-2
1.10974E0,-4.52880E-2
1.10913E0,-4.52880E-2
1.11022E0,-4.45556E-2
1.10815E0,-4.56543E-2
1.10998E0,-4.58984E-2
1.10827E0,-4.44335E-2
1.11059E0,-4.51660E-2
1.10925E0,-4.45556E-2
1.11138E0,-4.58984E-2
1.10900E0,-4.56543E-2
1.11041E0,-4.49829E-2
1.10900E0,-4.48608E-2
1.10998E0,-4.65087E-2
1.11120E0,-4.61425E-2
1.11254E0,-4.48608E-2
1.11071E0,-4.62036E-2
1.11151E0,-4.55932E-2
1.11071E0,-4.61425E-2
1.11010E0,-4.48608E-2
1.11126E0,-4.51049E-2
1.11413E0,-4.64477E-2
1.11309E0,-4.66918E-2
1.11175E0,-4.75463E-2
1.11279E0,-4.62646E-2
1.11206E0,-4.65698E-2
1.11334E0,-4.60205E-2
1.11291E0,-4.63867E-2
1.11438E0,-4.62036E-2
1.11401E0,-4.71801E-2
1.11254E0,-4.61425E-2
1.11419E0,-4.74853E-2
1.11273E0,-4.68139E-2
1.11425E0,-4.51049E-2
1.11364E0,-4.58374E-2
1.11181E0,-4.58374E-2
1.11267E0,-4.60205E-2
1.11370E0,-4.55932E-2
1.11438E0,-4.52270E-2
1.11401E0,-4.52270E-2
1.11315E0,-4.55932E-2
1.11322E0,-4.45556E-2
1.11242E0,-4.55932E-2
1.11346E0,-4.42504E-2
1.11358E0,-4.49218E-2
1.11212E0,-4.55322E-2
1.11273E0,-4.50439E-2
1.11279E0,-4.48608E-2
1.11267E0,-4.54101E-2
1.11383E0,-4.35791E-2
1.11230E0,-4.41894E-2
1.11206E0,-4.43115E-2
1.11309E0,-4.49829E-2
1.11254E0,-4.42504E-2
1.11212E0,-4.45556E-2
1.11273E0,-4.42504E-2
1.11206E0,-4.40673E-2
1.11096E0,-4.37622E-2
1.11267E0,-4.41284E-2
1.11230E0,-4.44335E-2
1.11090E0,-4.46777E-2
1.11126E0,-4.57763E-2
1.11126E0,-4.52270E-2
1.11132E0,-4.49218E-2
1.11145E0,-4.52880E-2
1.11059E0,-4.61425E-2
1.11181E0,-4.50439E-2
1.11059E0,-4.51660E-2
1.11108E0,-4.67529E-2
1.11059E0,-4.55322E-2
1.11047E0,-4.61425E-2
1.11047E0,-4.61425E-2
1.10949E0,-4.72412E-2
1.10925E0,-4.60205E-2
1.10974E0,-4.61425E-2
1.10913E0,-4.72412E-2
1.11071E0,-4.62646E-2
1.10925E0,-4.56543E-2
1.10864E0,-4.73632E-2
1.10961E0,-4.55322E-2
1.10839E0,-4.71191E-2
1.10937E0,-4.63867E-2
1.10900E0,-4.71191E-2
1.10888E0,-4.62646E-2
1.10839E0,-4.74853E-2
1.10986E0,-4.80957E-2
1.10949E0,-4.67529E-2
1.10949E0,-4.66308E-2
1.10925E0,-4.61425E-2
1.10998E0,-4.62646E-2
1.11071E0,-4.55322E-2
1.10998E0,-4.56543E-2
1.10974E0,-4.69970E-2
1.10937E0,-4.60205E-2
1.10900E0,-4.61425E-2
1.10998E0,-4.77294E-2
1.10949E0,-4.58984E-2
1.11157E0,-4.66308E-2
1.11132E0,-4.56543E-2
1.11059E0,-4.61425E-2
1.11035E0,-4.58984E-2
1.11181E0,-4.69970E-2
1.10852E0,-4.58984E-2
1.11145E0,-4.6875E-2
1.10986E0,-4.52880E-2
1.11059E0,-4.66308E-2
1.10974E0,-4.47998E-2
1.10888E0,-4.58984E-2
1.10961E0,-4.46167E-2
1.10864E0,-4.54711E-2
1.10925E0,-4.50439E-2
1.10961E0,-4.44335E-2
1.10803E0,-4.57153E-2
1.10913E0,-4.64477E-2
1.10955E0,-4.69970E-2
1.10815E0,-4.73632E-2
1.10791E0,-4.72412E-2
1.10766E0,-4.69970E-2
1.10882E0,-4.88891E-2
1.10888E0,-4.71801E-2
1.10839E0,-4.49218E-2
1.10693E0,-4.61425E-2
1.10693E0,-4.79126E-2
1.10913E0,-4.58374E-2
1.10821E0,-4.78515E-2
1.10815E0,-4.65698E-2
1.10827E0,-4.72412E-2
1.10705E0,-4.90722E-2
1.10791E0,-4.85229E-2
1.10723E0,-4.89502E-2
1.10711E0,-4.77905E-2
1.10711E0,-4.74853E-2
1.10693E0,-4.85229E-2
1.10833E0,-4.88281E-2
1.10675E0,-4.94995E-2
1.10711E0,-4.99877E-2
1.10754E0,-4.96215E-2
1.10693E0,-5.12085E-2
1.10723E0,-4.96826E-2
1.10583E0,-4.96215E-2
1.10595E0,-5.05371E-2
1.10498E0,-4.90112E-2
1.10626E0,-5.25512E-2
1.10736E0,-4.93164E-2
1.10473E0,-5.12085E-2
1.10498E0,-4.90722E-2
1.10540E0,-5.00488E-2
1.10485E0,-5.16357E-2
1.10595E0,-5.16357E-2
1.10620E0,-4.90722E-2
1.10553E0,-4.89502E-2
1.10614E0,-4.93774E-2
1.10540E0,-5.16357E-2
1.10589E0,-4.91943E-2
1.10675E0,-4.98046E-2
1.10504E0,-4.91333E-2
1.10504E0,-5.02319E-2
1.10394E0,-4.88281E-2
1.10449E0,-5.06591E-2
1.10583E0,-4.95605E-2
1.10620E0,-5.05371E-2
1.10620E0,-4.90722E-2
1.10766E0,-4.99267E-2
1.10534E0,-5.01709E-2
1.10559E0,-5.16357E-2
1.10559E0,-5.15136E-2
1.10461E0,-5.06591E-2
1.10583E0,-5.00488E-2
1.10424E0,-5.02929E-2
1.10498E0,-5.13916E-2
1.10412E0,-5.06591E-2
1.10473E0,-5.11474E-2
1.10363E0,-5.12695E-2
1.10290E0,-5.06591E-2
1.10266E0,-5.05371E-2
1.10253E0,-5.17578E-2
1.10351E0,-5.29785E-2
1.10168E0,-5.12695E-2
1.10192E0,-5.16357E-2
1.10290E0,-5.31005E-2
1.10302E0,-5.18798E-2
END
BEGIN
1.90511E-5,-1.30198E-5
-1.95652E-5,5.08912E-5
1.65607E-5,0.09890E-5
-3.8445E-5,1.01402E-5
1.75219E-5,1.23679E-5
-9.76026E-6,-6.55651E-5
-2.93515E-5,-2.66321E-5
-4.02145E-5,-6.89551E-6
6.49392E-5,-5.63263E-6
-4.57465E-6,-2.01705E-5
-1.59163E-6,-8.09691E-6
3.20226E-5,-1.49477E-5
0.72196E-5,-2.14707E-5
1.86972E-5,0.43157E-5
-3.08379E-5,-4.59700E-6
-2.44751E-5,-3.92124E-5
7.13244E-5,-1.67787E-5
-7.30156E-6,-1.32098E-5
2.87890E-5,1.29789E-5
9.40263E-6,-1.13826E-5
2.08448E-5,-2.90721E-5
-4.68269E-5,1.14105E-5
2.23219E-5,1.42492E-5
-5.59538E-5,-4.39509E-5
-1.66222E-5,0.17117E-5
-9.11019E-6,1.62366E-5
0.05774E-5,-5.46351E-5
2.05375E-5,-3.32817E-5
1.31502E-5,-1.08517E-5
-2.31321E-5,-2.39647E-5
-8.58772E-6,-1.74650E-5
-8.48434E-5,-2.57492E-5
-1.86227E-5,4.86727E-5
3.35276E-5,3.01022E-5
-2.12146E-5,1.21220E-5
2.87313E-5,-3.79867E-5
1.55214E-5,-9.59821E-6
4.47090E-5,-1.25654E-5
7.04377E-5,1.70767E-5
-3.11061E-7,-2.96281E-5
-1.68150E-5,0.06482E-5
2.75475E-5,-2.59541E-5
-8.19657E-6,-1.00638E-5
1.03479E-5,1.68262E-5
2.55862E-5,0.52778E-5
-5.14034E-5,-1.41933E-5
1.60485E-5,1.03917E-5
-7.24429E-6,-8.79680E-6
4.73186E-5,-3.04766E-5
-3.64333E-5,3.06367E-5
1.04438E-5,1.25383E-5
3.88566E-5,-1.27926E-5
1.02529E-5,-1.67246E-5
3.08677E-5,-8.02055E-5
-2.77813E-5,1.18389E-5
2.24076E-5,3.31830E-5
6.46710E-5,3.62917E-5
5.71236E-5,-1.10548E-5
-1.43218E-5,-3.77278E-5
8.25934E-5,1.43460E-5
4.62867E-5,-2.30651E-5
3.07075E-5,-3.298E-5
4.30196E-5,6.04875E-5
-5.61736E-5,0.91753E-5
1.80341E-5,0.08912E-5
-2.45273E-5,-6.50473E-5
5.12898E-5,-3.94880E-6
3.18028E-5,2.42088E-5
3.72659E-5,1.62199E-5
6.20968E-5,3.13669E-5
7.09779E-5,-1.76727E-5
8.33533E-6,-1.44192E-5
1.55558E-5,0.54622E-5
4.19970E-5,-3.10912E-5
-5.26234E-5,-9.23499E-6
-7.66525E-6,6.02752E-6
2.52211E-5,-4.94811E-6
4.25670E-5,-6.12065E-6
0.04395E-5,3.95644E-5
4.33083E-5,-3.36207E-6
1.50930E-5,-3.31625E-5
2.10674E-5,-2.56821E-5
4.58844E-5,1.16117E-5
-4.68790E-5,6.54198E-5
-2.33240E-5,-5.55850E-5
2.54102E-5,1.63018E-5
-1.33365E-5,-3.27266E-6
4.53330E-5,-1.04159E-5
-4.04417E-5,-5.64083E-5
7.94753E-5,-4.90546E-5
-7.88085E-6,2.43224E-5
2.73119E-5,0.22817E-5
3.80650E-5,3.22982E-5
-1.49365E-5,1.55475E-5
7.41854E-5,0.34272E-5
3.41758E-5,3.16500E-5
-2.34097E-5,2.46577E-5
2.20164E-5,-6.98939E-5
-7.37607E-7,9.29087E-6
3.74168E-5,-4.94606E-5
3.87206E-5,1.41486E-5
5.08651E-5,-8.10027E-5
1.41952E-5,-2.34413E-5
2.04443E-5,-3.86536E-5
-1.90939E-5,0.03129E-5
-1.01188E-5,1.00340E-5
3.45483E-5,-1.72853E-6
2.22027E-6,1.31409E-5
1.04531E-5,9.82172E-6
-5.07123E-5,-1.48192E-5
2.39778E-5,-8.61287E-6
2.97799E-5,3.45781E-5
-7.80820E-6,4.11607E-5
0.65565E-5,6.07967E-5
5.18672E-5,-1.38506E-5
8.37966E-5,0.65416E-5
-8.38562E-6,-2.17463E-5
2.25082E-5,2.08392E-5
5.34579E-5,-2.32942E-5
5.38379E-5,-1.52699E-5
-2.93552E-5,-4.28333E-5
1.85184E-5,-1.33179E-6
2.45235E-5,2.11596E-5
4.49083E-5,0.58598E-5
1.41449E-5,-4.36194E-5
0.24624E-5,3.24249E-5
2.63843E-5,-5.43519E-6
-1.49235E-5,-4.88534E-5
5.74514E-5,-3.46452E-7
-1.70543E-5,-7.19651E-5
4.80637E-5,-8.97049E-6
-8.53091E-7,5.39608E-5
4.01027E-5,1.70804E-5
4.13432E-5,2.91988E-5
5.71012E-5,-3.87765E-5
2.27019E-5,-5.49927E-5
1.15037E-5,-3.05250E-5
1.48341E-5,-2.39629E-5
6.31772E-5,0.52936E-5
-9.51811E-6,5.12301E-5
3.22163E-5,-4.12836E-5
1.73132E-5,1.63838E-5
1.04896E-4,0.24884E-5
1.83619E-5,-3.95886E-5
5.45755E-5,6.72042E-5
2.81706E-5,0.23450E-5
3.69213E-5,-1.97812E-6
2.28695E-5,-4.45544E-6
-2.52798E-5,-2.84425E-5
2.55834E-5,-2.56467E-5
2.95545E-5,-4.32319E-6
4.6812E-5,-3.43844E-5
-3.90522E-5,5.03510E-5
3.12663E-5,1.21705E-5
2.23573E-5,0.31907E-5
1.67042E-5,-8.40202E-5
8.16881E-5,1.79708E-5
4.09558E-5,-7.71507E-5
4.61414E-5,-4.55044E-5
-2.55089E-5,-4.63426E-6
-1.86916E-5,2.61925E-5
-4.00543E-5,1.64285E-5
8.54432E-5,0.78752E-5
-5.76674E-6,-2.67587E-5
-1.76215E-5,0.63693E-5
3.31625E-5,1.60075E-5
4.48636E-5,-2.37114E-5
1.90585E-5,-2.57808E-5
2.29524E-6,4.79072E-6
2.42963E-5,-3.72789E-5
-9.22195E-6,-1.96676E-5
4.05199E-5,-1.73337E-5
2.84183E-5,-2.73380E-5
3.94918E-5,0.21830E-5
1.37910E-5,1.87754E-5
4.99486E-5,2.57194E-5
3.07597E-5,1.70283E-5
2.80737E-5,-2.85208E-5
6.12326E-5,-2.23666E-5
-1.38729E-5,-1.26827E-5
-2.95788E-6,-2.87778E-5
1.70767E-5,-4.82499E-5
-3.73311E-5,1.72667E-5
1.03619E-5,4.36976E-6
-2.61087E-5,0.63162E-5
4.89726E-5,-4.49642E-6
2.89678E-5,5.04553E-5
-4.32357E-5,-3.54573E-5
-1.41393E-5,-8.67992E-7
1.48117E-5,9.64105E-6
-1.38301E-5,-1.24722E-5
9.92324E-6,-9.84501E-6
4.84436E-5,0.97602E-5
1.32876E-6,1.40676E-6
4.77731E-5,2.66581E-5
-2.59615E-5,3.12104E-5
-2.62837E-5,1.53370E-5
4.44017E-5,-8.99285E-6
3.86685E-5,2.85729E-5
-1.25803E-5,-4.02070E-5
1.36429E-5,-1.29863E-5
END
BEGIN
8.34558E-6,6.61611E-6
1.16117E-5,-2.12118E-5
2.16644E-5,0.89388E-5
-3.61949E-5,-1.97216E-5
4.02443E-5,-5.65499E-5
6.28531E-5,-9.42945E-5
-6.74277E-7,-4.41707E-5
-3.09385E-6,-2.18879E-5
2.23256E-5,-4.67337E-6
-9.95863E-6,-3.75509E-6
7.20471E-5,-4.37051E-5
2.63452E-5,-3.19816E-5
1.25765E-5,-3.31327E-5
-1.72816E-5,-1.29342E-5
3.07001E-5,-4.30271E-5
-1.94292E-5,-4.13507E-6
1.84252E-5,-4.58098E-5
0.21476E-5,-3.05268E-5
-3.96035E-5,-8.53836E-6
-1.50688E-5,-1.05258E-5
9.11485E-6,-8.18725E-6
-3.44738E-5,-3.18661E-5
-1.10240E-5,-4.13321E-6
3.81171E-5,-6.67944E-6
0.09872E-6,7.23498E-6
0.57295E-5,-3.56324E-5
5.07123E-5,-2.79955E-5
-1.10045E-5,-3.98531E-5
1.23381E-5,2.28919E-5
-3.56864E-5,4.94550E-5
2.94018E-6,-1.10557E-5
-7.03148E-6,3.87821E-5
3.06684E-6,-1.44289E-5
1.82762E-5,2.14278E-5
1.55894E-5,-4.15090E-6
-7.10971E-6,-9.52463E-6
2.75075E-5,3.86536E-5
-1.40061E-5,-1.42315E-5
4.39863E-5,0.58412E-5
2.04043E-5,-2.38716E-5
1.82110E-5,-6.02994E-5
3.50568E-5,2.63452E-5
1.30366E-5,6.57886E-6
3.76366E-5,5.96158E-5
-2.23983E-6,9.50368E-6
1.85146E-5,-9.07108E-6
1.64955E-5,-2.55769E-5
-1.61379E-5,0.62407E-5
2.37356E-5,-4.36697E-5
2.95918E-5,2.87871E-5
-2.39498E-5,5.65499E-5
-1.68550E-5,-3.83947E-5
5.16921E-5,0.90617E-5
1.32210E-5,3.32538E-5
-8.27480E-6,-3.04263E-6
3.48053E-5,6.57774E-5
-3.44459E-5,1.33793E-5
0.86817E-5,4.14885E-5
4.95612E-5,-2.18860E-6
-2.92621E-6,5.83510E-5
2.79899E-5,-7.33323E-6
3.18642E-5,0.64112E-5
0.69467E-5,-1.80471E-5
1.16322E-5,-5.80065E-5
6.92531E-5,4.61451E-5
-2.86903E-5,0.83548E-5
0.70082E-6,1.16336E-5
3.68133E-5,3.44477E-5
8.34725E-5,-1.15782E-5
4.14461E-6,3.32831E-6
3.85791E-5,-7.35372E-5
4.07025E-5,-2.16513E-5
3.78191E-5,-1.15688E-5
2.74963E-5,4.26471E-5
6.58668E-5,-4.56944E-5
-1.61519E-5,-4.68455E-6
9.9889E-6,2.92342E-6
1.83712E-5,2.85040E-5
-1.65095E-5,0.71078E-5
2.93161E-5,2.21598E-5
1.34836E-5,3.49432E-5
3.15941E-5,-3.57143E-5
2.29384E-5,-7.54557E-6
2.06334E-5,-4.87081E-7
0.24642E-5,-4.72143E-5
-1.81756E-5,0.07972E-5
1.60243E-5,-1.93417E-5
2.75373E-5,-3.19071E-5
4.26955E-5,-3.31886E-5
1.29388E-5,1.13435E-6
8.68737E-6,5.87105E-6
2.08169E-5,2.96905E-5
2.64756E-5,-4.26992E-5
1.57151E-5,-1.86469E-5
7.64802E-5,-2.23219E-5
-4.36976E-6,-1.18631E-5
0.03837E-5,-3.31476E-5
6.52391E-6,-9.12789E-6
2.71610E-5,-5.23999E-5
4.84921E-5,-1.15595E-5
2.97315E-5,1.51060E-5
-1.22096E-6,-1.07996E-5
-5.22285E-5,-4.91440E-5
4.56720E-5,-3.11620E-5
4.36715E-5,-4.86336E-5
1.09113E-5,2.29962E-5
4.86001E-5,-3.15122E-5
1.86618E-5,-1.08461E-5
1.99619E-5,-2.44993E-5
-6.63660E-6,2.52313E-5
0.90990E-5,-2.71126E-5
-1.19581E-6,-4.20957E-5
3.90932E-5,-7.83354E-5
1.97626E-6,7.00075E-6
2.93850E-5,-8.11740E-5
3.89255E-5,-5.74328E-5
1.51246E-5,7.18049E-6
3.48985E-5,3.61055E-5
9.76491E-6,-1.30040E-5
0.38333E-5,-3.46489E-5
2.83233E-5,-1.17477E-5
8.40285E-6,-2.77347E-6
-1.86134E-5,2.46334E-5
2.63527E-5,2.61999E-5
3.65823E-5,-4.04976E-5
1.92243E-5,-8.67061E-6
4.64245E-5,3.29986E-5
0.87246E-5,-2.25473E-5
-2.14316E-5,-8.12672E-6
3.20971E-5,-1.72555E-5
1.32480E-5,2.32458E-6
-1.88797E-5,4.02294E-5
3.89218E-5,-3.92198E-5
2.39200E-5,-5.51529E-6
-8.62963E-6,-2.12006E-5
4.31500E-5,-2.02171E-5
-1.86823E-5,-3.61353E-6
2.95694E-5,0.11734E-5
3.42354E-5,-8.94069E-7
-2.15712E-5,-8.08388E-6
0.46193E-5,-3.80054E-5
1.85221E-5,-6.88880E-5
2.19699E-5,-1.72760E-5
-7.36862E-6,-9.76957E-6
0.50850E-5,3.72417E-5
3.14768E-5,-1.31838E-5
-1.05565E-5,0.36507E-6
1.58138E-5,-4.19691E-5
2.91988E-5,-3.26000E-5
5.94276E-6,9.96608E-6
9.40728E-6,4.33717E-6
7.05942E-5,-4.73856E-6
3.44589E-5,5.33685E-5
9.24021E-5,1.29118E-5
-1.23959E-5,-2.02972E-5
1.11889E-5,2.04052E-5
1.65030E-5,-1.81999E-5
-6.94021E-6,3.19778E-5
1.73598E-5,-2.21971E-5
-1.16340E-5,-4.40888E-6
3.7577E-5,0.76107E-5
5.58886E-6,4.17511E-6
7.16149E-5,5.74737E-5
4.04417E-5,-4.67896E-6
-6.11320E-6,-1.78646E-5
4.99151E-5,1.58771E-5
-1.71810E-5,-6.39557E-5
0.56326E-5,-4.80376E-5
-1.28671E-5,-4.12017E-5
4.57502E-5,-2.31936E-5
-1.69873E-6,-3.59974E-5
4.3693E-6,-5.85103E-6
1.24014E-5,-4.74974E-5
4.03598E-5,2.93999E-5
2.95117E-5,-4.13432E-5
0.28200E-5,-3.18810E-5
-8.91648E-6,7.71973E-6
-3.26782E-5,1.64993E-5
0.89556E-5,-7.58171E-5
-1.79223E-5,0.07022E-5
4.70951E-5,3.7238E-5
5.06080E-5,0.80019E-5
0.94324E-5,6.18845E-5
7.29262E-5,-1.15484E-5
-1.34073E-5,-2.00886E-6
-3.65898E-5,-5.20795E-6
0.30547E-6,6.71111E-6
1.09180E-4,0.99837E-5
5.45270E-5,0.23134E-5
2.66898E-5,-1.15111E-6
8.25151E-6,-1.01048E-7
-3.33525E-5,-1.54711E-5
6.63893E-6,2.22167E-6
-1.24462E-5,1.01774E-5
-6.60121E-6,-5.64083E-5
1.08853E-5,-1.95540E-5
-7.34254E-6,-2.36555E-5
5.17116E-6,-7.03474E-6
-1.96006E-5,0.75679E-5
4.91663E-5,1.76765E-5
0.42989E-5,-2.84202E-5
END
BEGIN
0.07202E-1,1.06152E0
-1.5625E-2,1.06225E0
-3.60107E-2,1.06103E0
-5.83496E-2,1.06140E0
-8.06884E-2,1.05773E0
-1.02172E-1,1.05810E0
-1.24267E-1,1.05615E0
-1.45629E-1,1.05151E0
-1.68945E-1,1.05017E0
-1.89819E-1,1.04785E0
-2.12158E-1,1.0448E0
-2.34497E-1,1.04126E0
-2.56347E-1,1.03649E0
-2.76489E-1,1.02832E0
-2.99804E-1,1.02404E0
-3.22143E-1,1.01940E0
-3.42285E-1,1.01190E0
-3.63586E-1,1.00512E0
-3.85314E-1,9.96582E-1
-4.05212E-1,9.89196E-1
-4.26696E-1,9.79675E-1
-4.46228E-1,9.72168E-1
-4.67956E-1,9.61547E-1
-4.87426E-1,9.52880E-1
-5.07446E-1,9.42016E-1
-5.29785E-1,9.31457E-1
-5.48461E-1,9.21386E-1
-5.66772E-1,9.07959E-1
-5.89477E-1,8.96728E-1
-6.05346E-1,8.85070E-1
-6.24633E-1,8.71917E-1
-6.43707E-1,8.58215E-1
-6.64184E-1,8.43170E-1
-6.80694E-1,8.29467E-1
-6.97662E-1,8.15246E-1
-7.16522E-1,7.99774E-1
-7.34344E-1,7.83386E-1
-7.49816E-1,7.67974E-1
-7.66113E-1,7.50549E-1
-7.82226E-1,7.35595E-1
-7.98217E-1,7.17285E-1
-8.12011E-1,7.02056E-1
-8.28491E-1,6.82708E-1
-8.42437E-1,6.64978E-1
-8.57330E-1,6.46392E-1
-8.70086E-1,6.28295E-1
-8.83636E-1,6.09161E-1
-8.95019E-1,5.89660E-1
-9.08752E-1,5.70098E-1
-9.21875E-1,5.49377E-1
-9.31060E-1,5.31127E-1
-9.42718E-1,5.12023E-1
-9.52484E-1,4.87274E-1
-9.63470E-1,4.69024E-1
-9.74121E-1,4.47296E-1
-9.81079E-1,4.28070E-1
-9.91546E-1,4.05395E-1
-9.98107E-1,3.84002E-1
-1.00592E0,3.62976E-1
-1.01458E0,3.39172E-1
-1.02093E0,3.17016E-1
-1.02771E0,2.94006E-1
-1.03283E0,2.71484E-1
-1.03942E0,2.51220E-1
-1.04364E0,2.27172E-1
-1.04840E0,2.04223E-1
-1.05108E0,1.81030E-1
-1.05517E0,1.59606E-1
-1.05926E0,1.37146E-1
-1.06164E0,1.13220E-1
-1.06408E0,0.90087E-1
-1.06585E0,0.65185E-1
-1.06604E0,0.41870E-1
-1.06781E0,0.19043E-1
-1.06640E0,-6.34765E-3
-1.06671E0,-2.90527E-2
-1.06634E0,-5.26733E-2
-1.06433E0,-7.37915E-2
-1.06304E0,-9.88769E-2
-1.05944E0,-1.20178E-1
-1.05548E0,-1.45080E-1
-1.05383E0,-1.67724E-1
-1.04657E0,-1.90490E-1
-1.04412E0,-2.14233E-1
-1.03863E0,-2.36389E-1
-1.03381E0,-2.60986E-1
-1.02746E0,-2.82959E-1
-1.01928E0,-3.05786E-1
-1.01220E0,-3.27636E-1
-1.00207E0,-3.48877E-1
-9.95605E-1,-3.69873E-1
-9.88403E-1,-3.94409E-1
-9.77905E-1,-4.14428E-1
-9.69726E-1,-4.36645E-1
-9.56909E-1,-4.57885E-1
-9.48730E-1,-4.78759E-1
-9.35791E-1,-4.99389E-1
-9.25659E-1,-5.19775E-1
-9.10766E-1,-5.40771E-1
-8.99169E-1,-5.60180E-1
-8.87085E-1,-5.81298E-1
-8.72558E-1,-6.00585E-1
-8.59252E-1,-6.17797E-1
-8.43017E-1,-6.36596E-1
-8.29345E-1,-6.53930E-1
-8.15429E-1,-6.74316E-1
-7.98706E-1,-6.91284E-1
-7.83569E-1,-7.07885E-1
-7.67211E-1,-7.25463E-1
-7.50976E-1,-7.41210E-1
-7.33154E-1,-7.59155E-1
-7.1521E-1,-7.71484E-1
-6.97998E-1,-7.88452E-1
-6.77612E-1,-8.05175E-1
-6.62719E-1,-8.19580E-1
-6.41235E-1,-8.33252E-1
-6.23168E-1,-8.45947E-1
-6.04126E-1,-8.59130E-1
-5.84350E-1,-8.72680E-1
-5.64209E-1,-8.85376E-1
-5.45288E-1,-8.94653E-1
-5.25756E-1,-9.07470E-1
-5.04150E-1,-9.19311E-1
-4.84130E-1,-9.30542E-1
-4.63623E-1,-9.39941E-1
-4.42627E-1,-9.47998E-1
-4.23095E-1,-9.58984E-1
-3.98559E-1,-9.64721E-1
-3.76220E-1,-9.75097E-1
-3.55957E-1,-9.81933E-1
-3.35449E-1,-9.87548E-1
-3.11767E-1,-9.94628E-1
-2.90039E-1,-1.00061E0
-2.67822E-1,-1.00585E0
-2.44506E-1,-1.01159E0
-2.23022E-1,-1.01513E0
-2.02026E-1,-1.02063E0
-1.79809E-1,-1.02331E0
-1.55883E-1,-1.02648E0
-1.33544E-1,-1.03015E0
-1.10351E-1,-1.03186E0
-8.74023E-2,-1.0354E0
-6.75048E-2,-1.03405E0
-4.29687E-2,-1.03601E0
-1.94091E-2,-1.03576E0
-6.10351E-4,-1.03674E0
0.24780E-1,-1.03515E0
0.47119E-1,-1.03454E0
0.68603E-1,-1.03283E0
0.90454E-1,-1.03271E0
1.12793E-1,-1.02899E0
1.35437E-1,-1.02630E0
1.55822E-1,-1.02301E0
1.79626E-1,-1.01892E0
1.99951E-1,-1.01397E0
2.25341E-1,-1.00970E0
2.44934E-1,-1.00170E0
2.65808E-1,-9.99084E-1
2.87780E-1,-9.92248E-1
3.08532E-1,-9.86145E-1
3.30139E-1,-9.78698E-1
3.49304E-1,-9.68872E-1
3.72558E-1,-9.62097E-1
3.91296E-1,-9.53552E-1
4.10644E-1,-9.44885E-1
4.32678E-1,-9.34631E-1
4.52514E-1,-9.25781E-1
4.72656E-1,-9.15283E-1
4.90112E-1,-9.03015E-1
5.10498E-1,-8.93371E-1
5.28503E-1,-8.82568E-1
5.47973E-1,-8.70727E-1
5.67565E-1,-8.59130E-1
5.84899E-1,-8.46984E-1
6.03515E-1,-8.32275E-1
6.19567E-1,-8.21472E-1
6.38061E-1,-8.05847E-1
6.54663E-1,-7.93029E-1
6.70166E-1,-7.79052E-1
6.86218E-1,-7.63855E-1
7.03552E-1,-7.49755E-1
7.18078E-1,-7.35717E-1
7.33947E-1,-7.19238E-1
7.48168E-1,-7.03369E-1
7.62756E-1,-6.875E-1
7.76550E-1,-6.72790E-1
7.89978E-1,-6.54418E-1
8.04077E-1,-6.38366E-1
8.18359E-1,-6.20971E-1
8.29834E-1,-6.03881E-1
8.43811E-1,-5.86792E-1
8.54064E-1,-5.68664E-1
8.66943E-1,-5.51696E-1
8.77197E-1,-5.32714E-1
8.89221E-1,-5.13977E-1
8.99780E-1,-4.94995E-1
9.07959E-1,-4.76013E-1
9.19067E-1,-4.58801E-1
9.29443E-1,-4.39758E-1
9.37927E-1,-4.19616E-1
9.46716E-1,-4.00512E-1
END

