CITIFILE A.01.00
#NA VERSION HP8753E.07.12
NAME DATA
VAR FREQ MAG 201
DATA S[1,1] RI
DATA S[2,1] RI
DATA S[1,2] RI
DATA S[2,2] RI
SEG_LIST_BEGIN
SEG 5675000000 5925000000 201
SEG_LIST_END
BEGIN
1.10815E0,-4.45556E-2
1.10852E0,-4.45556E-2
1.10681E0,-4.57763E-2
1.10937E0,-4.45556E-2
1.10998E0,-4.34570E-2
1.10925E0,-4.28466E-2
1.10864E0,-4.44335E-2
1.10925E0,-4.40673E-2
1.10925E0,-4.35791E-2
1.10961E0,-4.46777E-2
1.10998E0,-4.55322E-2
1.10913E0,-4.58984E-2
1.10876E0,-4.47998E-2
1.11181E0,-4.61425E-2
1.10852E0,-4.41894E-2
1.11010E0,-4.52880E-2
1.10925E0,-4.56543E-2
1.10986E0,-4.52880E-2
1.11120E0,-4.6875E-2
1.11059E0,-4.54101E-2
1.10913E0,-4.56543E-2
1.10913E0,-4.67529E-2
1.10937E0,-4.52880E-2
1.10998E0,-4.41894E-2
1.10961E0,-4.51660E-2
1.10961E0,-4.58984E-2
1.11047E0,-4.63867E-2
1.10961E0,-4.57763E-2
1.10864E0,-4.54101E-2
1.11151E0,-4.74853E-2
1.11242E0,-4.62036E-2
1.10961E0,-4.57153E-2
1.10986E0,-4.71191E-2
1.10998E0,-4.67529E-2
1.11120E0,-4.71191E-2
1.11114E0,-4.75463E-2
1.112E0,-4.68139E-2
1.11065E0,-4.65698E-2
1.11077E0,-4.80957E-2
1.11224E0,-4.51049E-2
1.11230E0,-4.73022E-2
1.11187E0,-4.57153E-2
1.11169E0,-4.79126E-2
1.11273E0,-4.65698E-2
1.11352E0,-4.66918E-2
1.11334E0,-4.69970E-2
1.11358E0,-4.76074E-2
1.11273E0,-4.74243E-2
1.11370E0,-4.62036E-2
1.11254E0,-4.70581E-2
1.11352E0,-4.70581E-2
1.11224E0,-4.72412E-2
1.11285E0,-4.57763E-2
1.11346E0,-4.65087E-2
1.11377E0,-4.64477E-2
1.11309E0,-4.67529E-2
1.11334E0,-4.59594E-2
1.11352E0,-4.59594E-2
1.11291E0,-4.73022E-2
1.11315E0,-4.59594E-2
1.11401E0,-4.66918E-2
1.11151E0,-4.53491E-2
1.11206E0,-4.58374E-2
1.11212E0,-4.53491E-2
1.11297E0,-4.47387E-2
1.11175E0,-4.47998E-2
1.11248E0,-4.52880E-2
1.11322E0,-4.31518E-2
1.11279E0,-4.55322E-2
1.11291E0,-4.37011E-2
1.11285E0,-4.44335E-2
1.11254E0,-4.44335E-2
1.11224E0,-4.41284E-2
1.11248E0,-4.54101E-2
1.11218E0,-4.47998E-2
1.11236E0,-4.47998E-2
1.11273E0,-4.52270E-2
1.11230E0,-4.38232E-2
1.11230E0,-4.43115E-2
1.11169E0,-4.46777E-2
1.11071E0,-4.61425E-2
1.11065E0,-4.60205E-2
1.11157E0,-4.46167E-2
1.11114E0,-4.51049E-2
1.11138E0,-4.59594E-2
1.11047E0,-4.63867E-2
1.11132E0,-4.52880E-2
1.11071E0,-4.60205E-2
1.11108E0,-4.69970E-2
1.11084E0,-4.58984E-2
1.10998E0,-4.65087E-2
1.11022E0,-4.63867E-2
1.10961E0,-4.73632E-2
1.10864E0,-4.65087E-2
1.10986E0,-4.67529E-2
1.10961E0,-4.77294E-2
1.11047E0,-4.6875E-2
1.10925E0,-4.67529E-2
1.10913E0,-4.80957E-2
1.10974E0,-4.60205E-2
1.10888E0,-4.78515E-2
1.10888E0,-4.65087E-2
1.10961E0,-4.73632E-2
1.10949E0,-4.69970E-2
1.10827E0,-4.84619E-2
1.10949E0,-4.87060E-2
1.10986E0,-4.72412E-2
1.10913E0,-4.72412E-2
1.10961E0,-4.71191E-2
1.11022E0,-4.6875E-2
1.11096E0,-4.65087E-2
1.11035E0,-4.61425E-2
1.11010E0,-4.78515E-2
1.10949E0,-4.66308E-2
1.10961E0,-4.72412E-2
1.11010E0,-4.85839E-2
1.10974E0,-4.6875E-2
1.11193E0,-4.67529E-2
1.11132E0,-4.60205E-2
1.10998E0,-4.6875E-2
1.11035E0,-4.60205E-2
1.11145E0,-4.78515E-2
1.10864E0,-4.63867E-2
1.11071E0,-4.76074E-2
1.10998E0,-4.62646E-2
1.11084E0,-4.67529E-2
1.10961E0,-4.57763E-2
1.10888E0,-4.67529E-2
1.11010E0,-4.65698E-2
1.10888E0,-4.64477E-2
1.11010E0,-4.48608E-2
1.10913E0,-4.59594E-2
1.10778E0,-4.69970E-2
1.11053E0,-4.75463E-2
1.10870E0,-4.71191E-2
1.10693E0,-4.84619E-2
1.10913E0,-4.74853E-2
1.1073E0,-4.77294E-2
1.10882E0,-4.81567E-2
1.10882E0,-4.67529E-2
1.10833E0,-4.6875E-2
1.10748E0,-4.65698E-2
1.10687E0,-4.69970E-2
1.10797E0,-4.68139E-2
1.10852E0,-4.86450E-2
1.10870E0,-4.63256E-2
1.10900E0,-4.77905E-2
1.10614E0,-4.93164E-2
1.1073E0,-4.72412E-2
1.10791E0,-4.79736E-2
1.10656E0,-4.75463E-2
1.10766E0,-4.90722E-2
1.10687E0,-4.99877E-2
1.10925E0,-4.94995E-2
1.10510E0,-5.01098E-2
1.10687E0,-5.01098E-2
1.10876E0,-4.98657E-2
1.10656E0,-5.28564E-2
1.10870E0,-4.98046E-2
1.10516E0,-5.07812E-2
1.10803E0,-5.07812E-2
1.10473E0,-5.01098E-2
1.10565E0,-5.27343E-2
1.10638E0,-5.08422E-2
1.10632E0,-5.16357E-2
1.10540E0,-5.07202E-2
1.10559E0,-5.06591E-2
1.10430E0,-5.01098E-2
1.10522E0,-5.09643E-2
1.10504E0,-5.02319E-2
1.10516E0,-5.04150E-2
1.10797E0,-4.98657E-2
1.10595E0,-5.29174E-2
1.10650E0,-5.04150E-2
1.10504E0,-5.04150E-2
1.10443E0,-5.16967E-2
1.10754E0,-5.05371E-2
1.10546E0,-5.06591E-2
1.10510E0,-5.24902E-2
1.10534E0,-5.18798E-2
1.10571E0,-5.12695E-2
1.10607E0,-4.90722E-2
1.10534E0,-5.15136E-2
1.10473E0,-5.06591E-2
1.10510E0,-5.20019E-2
1.10559E0,-5.11474E-2
1.10461E0,-5.06591E-2
1.10522E0,-5.04150E-2
1.10559E0,-5.21240E-2
1.10327E0,-5.22460E-2
1.10522E0,-5.12695E-2
1.10363E0,-5.21240E-2
1.10388E0,-5.29785E-2
1.10400E0,-5.13916E-2
1.10339E0,-5.24902E-2
1.10229E0,-5.18798E-2
1.10217E0,-5.18798E-2
1.10229E0,-5.10253E-2
1.10217E0,-5.21240E-2
1.10314E0,-5.38330E-2
1.10180E0,-5.15136E-2
END
BEGIN
5.32344E-5,-2.71350E-5
0.67427E-5,1.62497E-5
-1.34110E-7,3.75285E-5
-1.62981E-5,1.68420E-5
-4.72739E-6,-3.64240E-6
-1.18967E-5,-5.43706E-6
-1.57952E-6,-6.45220E-5
-5.34579E-5,-2.98544E-5
7.01323E-5,-1.29565E-5
-2.80626E-5,-1.23456E-5
2.78968E-5,-1.19265E-5
-3.26186E-5,0.40009E-5
-5.36963E-5,-2.37226E-5
2.01575E-5,1.93901E-5
-4.70690E-5,-9.94652E-7
-9.50880E-6,-1.81123E-5
2.82377E-5,-2.78148E-5
2.09733E-6,6.78189E-6
1.73691E-5,1.12410E-5
-2.03177E-5,-1.53109E-6
3.54321E-6,-5.14555E-6
-4.07174E-5,0.87171E-5
0.70445E-5,4.11234E-5
3.41399E-6,-1.80210E-6
-2.79396E-5,-8.14423E-5
-4.12575E-7,1.52168E-5
6.17914E-5,-5.90942E-5
7.41705E-6,9.70624E-6
0.34868E-5,2.58125E-5
2.96272E-5,-3.55392E-6
3.53064E-5,-3.47197E-5
-4.29041E-5,-3.10167E-5
-3.6899E-6,4.91482E-6
3.82512E-5,2.13086E-5
-5.67641E-6,3.01990E-5
9.34302E-6,-6.48573E-6
3.60906E-5,1.41244E-5
-3.19397E-6,7.22846E-6
-9.03382E-7,-4.48226E-5
0.60591E-5,-2.16532E-5
5.08278E-5,1.06226E-5
3.75751E-5,-2.17054E-5
-4.33772E-5,-1.82129E-5
-5.37131E-5,2.51848E-5
2.73063E-5,0.87805E-5
-6.30505E-5,0.66608E-5
-1.77426E-5,2.19820E-5
-6.15138E-6,-1.73654E-5
1.94720E-5,7.81007E-5
-7.32299E-6,5.43775E-6
2.68463E-5,1.99042E-5
4.85824E-6,-1.03036E-5
2.93040E-5,-5.34579E-6
6.34565E-5,-1.13286E-5
-2.60984E-5,2.22539E-5
1.60485E-5,0.28703E-5
8.34316E-5,-1.70469E-5
2.47424E-5,0.56773E-5
-1.67097E-5,-1.9053E-5
8.56034E-5,1.10827E-5
7.02105E-5,-5.31151E-5
1.86935E-5,1.70506E-5
1.94180E-5,2.81408E-5
-8.59750E-6,1.38501E-5
4.80748E-5,2.16439E-5
-2.98954E-6,-3.14004E-5
7.09332E-5,-3.99798E-5
1.93174E-5,-2.65333E-5
2.72225E-5,0.99614E-5
3.81358E-5,3.94731E-5
1.53007E-5,1.00387E-5
2.02488E-5,0.92759E-5
5.21242E-5,-5.55813E-6
-1.42860E-5,-2.92109E-6
-5.35175E-5,-2.47731E-5
2.13161E-5,-1.38739E-5
1.59265E-5,0.14081E-5
-1.24424E-6,-1.07828E-5
1.27218E-5,5.28767E-5
6.59674E-5,-3.62657E-5
2.29608E-5,-2.32979E-5
0.48717E-5,-2.02665E-5
2.25286E-5,0.58151E-5
-7.18608E-6,7.46138E-5
-8.56723E-6,2.09976E-5
6.50063E-5,2.65911E-5
1.59144E-5,4.23267E-5
1.42697E-5,6.39632E-6
-2.27429E-6,-1.65477E-5
1.00188E-4,2.25976E-5
1.18203E-5,4.98853E-5
1.01216E-5,3.78228E-5
3.75248E-5,-4.15407E-5
2.56747E-5,5.42178E-5
3.13706E-5,-1.48825E-6
5.11370E-5,0.95851E-5
-1.42734E-5,-7.62753E-6
2.97613E-5,-3.15494E-5
-8.91275E-6,-1.39530E-5
5.10923E-5,-4.53852E-5
8.19265E-5,0.09015E-5
-8.50111E-6,-5.59613E-5
0.39711E-5,-6.34342E-5
5.86435E-5,3.03611E-5
-3.17059E-5,-2.42143E-5
6.15976E-5,-1.73300E-5
-5.99771E-7,4.39696E-5
-3.39839E-6,8.23754E-6
1.19544E-5,2.66134E-5
-4.20585E-5,-2.86772E-5
3.02251E-5,-8.17887E-6
1.09560E-5,1.54916E-5
2.05226E-5,-1.46124E-5
-5.64903E-5,7.00652E-5
2.11373E-5,-4.68641E-6
5.57750E-5,3.87579E-5
-1.21258E-6,1.65421E-5
1.22189E-5,5.11035E-5
4.34331E-5,-1.56052E-5
3.40640E-5,-3.62098E-6
1.58436E-5,-4.79258E-5
2.28099E-5,1.02426E-5
3.01003E-5,1.17942E-5
1.07437E-5,5.05819E-5
-3.32109E-6,-1.76727E-5
-2.38940E-5,1.60727E-5
2.37915E-5,-2.49035E-6
-1.65123E-5,0.75539E-5
1.09858E-5,-5.85429E-5
-2.73529E-5,-5.93997E-6
1.03637E-5,-3.29054E-5
1.35675E-5,2.31899E-5
1.57505E-5,0.36321E-5
5.40651E-5,-1.85109E-5
6.52447E-5,-6.19962E-5
4.14401E-5,-1.56834E-5
0.65304E-5,-4.29786E-5
5.51901E-6,-9.00682E-6
5.30332E-5,2.60174E-5
4.32655E-5,-2.98023E-6
4.69870E-5,0.29206E-5
5.19584E-6,-5.89853E-6
7.37160E-5,2.09584E-5
1.53165E-5,0.358E-5
0.92834E-5,3.27341E-5
5.69298E-5,2.44602E-5
2.78167E-5,-5.74290E-5
4.55305E-5,-2.95974E-5
0.18402E-5,1.83470E-5
7.10114E-5,-5.93140E-5
-9.73232E-6,2.31489E-5
7.46324E-5,1.57132E-5
-2.96905E-5,3.20896E-5
3.72603E-5,-2.76193E-5
1.63326E-5,-3.36859E-6
-4.93042E-6,-2.23759E-5
8.39829E-5,1.45807E-5
3.55541E-5,-8.10995E-5
2.40802E-5,-7.43046E-5
-7.57956E-6,1.35088E-6
0.23357E-5,2.87629E-5
3.42428E-5,6.62133E-5
2.02208E-5,-9.91113E-6
8.98353E-6,-1.09896E-5
-1.28280E-5,-1.95968E-5
6.35869E-5,-1.67824E-5
1.05537E-5,-6.10277E-5
0.66068E-5,-2.57119E-5
1.43703E-5,1.45714E-5
2.02264E-5,-7.19167E-6
2.89790E-5,0.29765E-5
7.75903E-5,-1.10492E-5
-6.4224E-6,-5.95822E-5
-1.59442E-6,2.39796E-5
2.60043E-5,-1.93528E-6
5.28022E-5,-1.94087E-6
4.45656E-5,-7.87898E-6
-2.32271E-5,-3.90149E-5
1.33477E-5,-4.23826E-5
1.84811E-5,-3.76403E-5
-3.32295E-5,-6.95362E-5
1.46636E-5,-6.64964E-7
-6.85453E-6,3.35015E-5
1.96769E-5,0.27418E-5
0.89686E-6,1.22571E-5
6.02901E-5,1.88499E-5
9.09566E-5,5.22881E-5
-2.88300E-5,-2.13086E-5
-3.90932E-5,-4.46438E-5
3.74019E-5,0.32559E-5
-4.01139E-5,0.47534E-5
2.16532E-5,1.24257E-5
1.19544E-5,-1.20764E-5
2.13421E-5,1.64844E-5
5.62239E-6,5.31319E-6
7.19633E-6,8.01589E-6
-4.04529E-5,3.65972E-5
4.24012E-5,-4.05833E-5
4.89037E-6,2.21701E-6
4.79333E-5,-7.37607E-7
3.14302E-5,-5.17517E-5
END
BEGIN
-1.54208E-5,-9.76026E-7
1.29928E-5,-6.40656E-6
2.34618E-5,3.47569E-5
1.93640E-5,-7.12275E-6
0.26449E-5,-5.30481E-5
-1.10790E-5,-2.68444E-5
-6.89178E-7,-5.11035E-5
-9.01520E-7,-4.03709E-5
1.93323E-5,0.94063E-5
-2.82414E-5,-6.78002E-6
3.80985E-5,0.85607E-5
2.19270E-5,-3.91155E-7
0.20079E-5,-3.24584E-5
-4.19020E-5,-3.37213E-5
2.86586E-5,-2.27913E-5
-2.71946E-5,-3.25888E-5
1.82744E-5,-1.68178E-5
-2.33277E-5,-1.95056E-5
1.21649E-5,-1.84439E-5
-1.67638E-6,-2.69599E-5
0.47646E-5,-3.61613E-5
-3.11303E-5,1.30143E-5
-1.10175E-5,-4.31668E-6
2.16960E-5,-7.84732E-6
1.09057E-5,1.56015E-5
2.20648E-5,-1.98893E-5
2.96384E-5,-1.649E-5
-2.92435E-5,-4.04641E-5
5.95208E-6,6.83590E-6
-3.40771E-5,1.26566E-5
1.60429E-5,-2.64551E-5
1.20922E-5,2.38772E-5
1.64713E-5,-2.91960E-5
1.75721E-5,4.45749E-5
-1.51591E-5,-1.09076E-5
-5.90831E-6,-5.94034E-5
-6.20447E-6,2.46651E-5
-3.85474E-6,2.87666E-5
-2.06707E-5,1.81514E-5
0.11026E-5,-5.15207E-5
1.87773E-5,-4.61544E-5
0.38631E-5,3.97674E-5
4.83566E-6,-7.05313E-6
2.32104E-5,2.72989E-5
4.52790E-5,-3.76217E-5
0.28573E-5,-1.69184E-5
1.16601E-5,-3.62768E-5
-6.97793E-7,9.29314E-7
3.52524E-5,-1.23158E-5
1.60355E-5,2.14204E-5
1.80155E-5,4.47295E-5
0.97919E-5,2.41342E-5
2.77757E-5,1.9392E-5
1.97775E-5,-4.90527E-6
-4.53786E-6,3.05101E-6
0.50403E-5,7.64243E-5
-1.13295E-5,-9.696E-6
9.00589E-6,3.85195E-6
-4.82844E-6,1.17300E-5
-1.16461E-6,1.18780E-5
3.05865E-5,-9.43057E-6
4.00133E-5,1.10659E-5
2.32076E-5,-2.79247E-5
2.77347E-5,-2.25296E-5
5.47506E-5,-1.42119E-6
-2.37040E-5,3.15792E-5
-1.29425E-5,-7.15721E-6
3.54610E-5,3.45036E-5
6.27599E-5,-7.85291E-6
1.97906E-5,-4.02014E-5
1.99489E-5,-2.32709E-5
0.65174E-5,-6.08339E-5
3.89851E-5,4.91030E-5
1.95149E-5,2.47657E-5
2.25231E-5,-5.37466E-5
-4.38839E-6,-2.10655E-5
1.23595E-5,1.23726E-6
1.62180E-5,-3.06032E-6
1.53929E-5,-4.56292E-5
1.58827E-5,1.22236E-5
8.00751E-6,7.79703E-6
2.49315E-5,-6.09811E-5
1.99079E-5,-9.97260E-6
4.29488E-5,-2.71685E-5
-1.39698E-8,-2.94214E-5
6.58724E-6,4.35393E-6
0.65602E-5,-1.92746E-5
-1.25542E-6,-5.44302E-5
3.00016E-5,-1.54543E-5
6.68130E-5,-1.31130E-6
6.70459E-6,8.68830E-6
5.42104E-5,2.05859E-5
1.62720E-5,2.84351E-5
3.30507E-5,-5.27873E-5
3.97302E-5,-9.78261E-6
-1.70618E-6,-4.25726E-5
6.1851E-5,-4.01660E-5
1.21537E-5,-1.73021E-5
8.21426E-6,-2.54251E-7
4.59030E-5,0.21867E-5
-6.46663E-6,-1.32620E-6
0.11399E-5,-3.16388E-5
0.03650E-5,-4.56795E-5
2.08504E-5,2.21431E-5
5.79208E-5,-2.37189E-5
2.58255E-5,-9.67457E-6
2.82693E-5,-1.03376E-5
5.69075E-5,-4.89130E-6
3.59714E-5,-6.31213E-5
-1.39186E-5,-1.43703E-6
0.21010E-5,-2.40560E-5
2.26497E-5,-3.93949E-5
4.57391E-5,-4.31090E-5
1.60895E-5,2.49147E-5
-2.36630E-5,-6.79865E-5
-1.28895E-6,-7.49900E-5
1.45118E-5,5.57117E-6
5.31040E-5,-1.86264E-7
2.26870E-5,0.45541E-5
0.01378E-5,-2.48029E-5
1.27181E-5,2.31266E-5
2.38847E-5,-1.36531E-6
-9.31136E-6,1.36988E-5
2.44081E-5,4.04343E-5
5.22397E-5,-4.38354E-5
2.26758E-5,1.83992E-5
1.04447E-5,0.73295E-6
4.56795E-5,-2.5291E-5
2.07088E-5,-1.13602E-5
-1.03339E-5,-5.41880E-5
6.23278E-5,-2.61738E-5
0.12759E-5,2.43671E-5
0.91120E-5,-4.31984E-5
3.92273E-5,-3.6899E-5
-2.17407E-5,-7.41109E-5
2.83960E-6,-1.38198E-5
-6.74184E-6,-7.02496E-6
3.14712E-5,-3.13036E-5
5.10402E-5,-8.69855E-6
2.74479E-5,-4.04603E-5
3.41348E-5,-3.04207E-5
0.46342E-5,-6.93649E-5
1.33663E-5,-3.61315E-5
-5.64754E-6,-1.49868E-5
2.32346E-5,2.13086E-5
-6.77537E-7,-6.01867E-6
1.98725E-5,0.56382E-5
2.68854E-5,-3.25217E-5
1.62441E-5,-2.15582E-5
-9.06363E-6,3.59900E-5
3.77036E-5,-9.47713E-6
2.81892E-5,1.08555E-5
3.75434E-5,4.80711E-5
7.24121E-5,-1.06617E-5
-8.25524E-6,4.69051E-5
-1.58343E-5,-5.66057E-6
2.29887E-5,-1.55512E-5
-3.39802E-5,0.39562E-5
1.94013E-5,1.59367E-5
4.30829E-6,-9.69320E-6
2.79322E-5,-5.09657E-5
-1.95540E-5,0.79106E-5
5.51194E-5,2.81184E-5
0.29541E-5,-4.72851E-5
-1.35377E-5,-6.25476E-5
3.33786E-5,-4.98518E-5
-7.59586E-6,-4.52362E-5
1.46469E-5,-7.55861E-6
1.68532E-5,-2.66246E-5
2.76118E-5,-4.43533E-5
2.87052E-5,-3.63215E-6
6.75171E-5,-1.22934E-5
0.10915E-5,-2.84146E-5
1.15484E-5,2.83960E-6
5.19715E-5,-3.24882E-5
0.02607E-5,-3.66792E-5
-2.07647E-5,2.06083E-5
-2.89157E-5,2.69282E-5
-1.70841E-5,-9.94652E-7
2.06865E-5,2.80365E-5
2.30334E-5,1.71288E-5
2.16923E-5,0.62510E-5
3.82512E-5,3.92273E-5
6.60568E-5,0.73313E-5
-3.60757E-5,-1.76914E-5
-9.64626E-5,-2.92658E-5
3.44254E-5,2.70158E-5
6.22235E-5,-9.16048E-6
3.73050E-5,-2.49221E-6
4.61004E-5,-3.94024E-5
3.06144E-5,-1.57803E-5
1.46850E-5,-3.20114E-5
3.59881E-5,-2.41864E-5
-1.58166E-5,0.85011E-5
3.50885E-5,-3.52449E-5
0.79218E-5,-1.60336E-5
0.24214E-5,-1.69500E-5
-1.79484E-5,-1.26063E-5
-1.41188E-5,-8.9854E-6
1.60075E-5,1.34855E-5
1.13239E-5,-1.91386E-6
END
BEGIN
0.08178E-1,1.06298E0
-1.5625E-2,1.06286E0
-3.58886E-2,1.06054E0
-5.79834E-2,1.06152E0
-7.95898E-2,1.05932E0
-1.02294E-1,1.05761E0
-1.23657E-1,1.05627E0
-1.45385E-1,1.05188E0
-1.68579E-1,1.05029E0
-1.89697E-1,1.04821E0
-2.12280E-1,1.04492E0
-2.33520E-1,1.04089E0
-2.55859E-1,1.03649E0
-2.76489E-1,1.02795E0
-2.99560E-1,1.02368E0
-3.21655E-1,1.01898E0
-3.42529E-1,1.01135E0
-3.62976E-1,1.00488E0
-3.84521E-1,9.96948E-1
-4.04602E-1,9.89440E-1
-4.26147E-1,9.80163E-1
-4.46533E-1,9.72106E-1
-4.67285E-1,9.61547E-1
-4.86755E-1,9.53369E-1
-5.07507E-1,9.42382E-1
-5.30151E-1,9.31396E-1
-5.47912E-1,9.21081E-1
-5.66589E-1,9.07897E-1
-5.89233E-1,8.96362E-1
-6.05285E-1,8.84887E-1
-6.23840E-1,8.71337E-1
-6.43554E-1,8.58337E-1
-6.64062E-1,8.43444E-1
-6.79748E-1,8.29742E-1
-6.97662E-1,8.15673E-1
-7.16705E-1,7.99865E-1
-7.33886E-1,7.83203E-1
-7.49511E-1,7.67700E-1
-7.65625E-1,7.51068E-1
-7.82012E-1,7.35626E-1
-7.97210E-1,7.17926E-1
-8.12042E-1,7.01446E-1
-8.28369E-1,6.83563E-1
-8.42254E-1,6.65496E-1
-8.57147E-1,6.46911E-1
-8.69537E-1,6.28173E-1
-8.83361E-1,6.09558E-1
-8.94989E-1,5.90667E-1
-9.07959E-1,5.69427E-1
-9.20929E-1,5.4953E-1
-9.31427E-1,5.31341E-1
-9.42535E-1,5.11901E-1
-9.52758E-1,4.88037E-1
-9.63714E-1,4.68872E-1
-9.73449E-1,4.48638E-1
-9.81811E-1,4.27337E-1
-9.91760E-1,4.04846E-1
-9.98901E-1,3.84429E-1
-1.00616E0,3.63220E-1
-1.01367E0,3.38562E-1
-1.02081E0,3.18786E-1
-1.02728E0,2.95654E-1
-1.03283E0,2.71972E-1
-1.03979E0,2.50549E-1
-1.04327E0,2.27050E-1
-1.04791E0,2.05139E-1
-1.05157E0,1.80603E-1
-1.05499E0,1.58874E-1
-1.05865E0,1.37756E-1
-1.06097E0,1.14013E-1
-1.06359E0,0.88989E-1
-1.06530E0,0.66101E-1
-1.06683E0,0.42663E-1
-1.06652E0,0.19043E-1
-1.06646E0,-6.46972E-3
-1.06634E0,-2.85644E-2
-1.06610E0,-5.18188E-2
-1.06353E0,-7.25097E-2
-1.06182E0,-9.82055E-2
-1.05883E0,-1.20727E-1
-1.05706E0,-1.44775E-1
-1.05358E0,-1.65039E-1
-1.04699E0,-1.90368E-1
-1.04376E0,-2.14477E-1
-1.04034E0,-2.35839E-1
-1.03405E0,-2.60864E-1
-1.02758E0,-2.81860E-1
-1.01904E0,-3.04931E-1
-1.01257E0,-3.25683E-1
-1.00170E0,-3.49487E-1
-9.95239E-1,-3.72070E-1
-9.87304E-1,-3.93554E-1
-9.78027E-1,-4.15283E-1
-9.69604E-1,-4.37133E-1
-9.56665E-1,-4.58374E-1
-9.47509E-1,-4.78637E-1
-9.34936E-1,-4.99145E-1
-9.24926E-1,-5.20874E-1
-9.12719E-1,-5.41381E-1
-8.99414E-1,-5.60668E-1
-8.86840E-1,-5.80810E-1
-8.74511E-1,-6.00585E-1
-8.59008E-1,-6.17919E-1
-8.43261E-1,-6.34521E-1
-8.29101E-1,-6.53198E-1
-8.16162E-1,-6.73461E-1
-7.98217E-1,-6.91406E-1
-7.85034E-1,-7.08252E-1
-7.66235E-1,-7.27539E-1
-7.50488E-1,-7.41943E-1
-7.31079E-1,-7.59765E-1
-7.15332E-1,-7.70385E-1
-6.98608E-1,-7.88940E-1
-6.79077E-1,-8.03710E-1
-6.61743E-1,-8.16284E-1
-6.43066E-1,-8.33740E-1
-6.23901E-1,-8.46923E-1
-6.05590E-1,-8.59008E-1
-5.83496E-1,-8.71215E-1
-5.63842E-1,-8.84643E-1
-5.46142E-1,-8.95629E-1
-5.25634E-1,-9.07470E-1
-5.04394E-1,-9.18945E-1
-4.85229E-1,-9.29321E-1
-4.64599E-1,-9.38964E-1
-4.42627E-1,-9.47753E-1
-4.21875E-1,-9.58496E-1
-3.98803E-1,-9.65454E-1
-3.77441E-1,-9.74121E-1
-3.58032E-1,-9.83398E-1
-3.35449E-1,-9.86328E-1
-3.12622E-1,-9.94262E-1
-2.88574E-1,-1.00109E0
-2.68554E-1,-1.00756E0
-2.44995E-1,-1.01110E0
-2.23388E-1,-1.01513E0
-2.03002E-1,-1.02026E0
-1.79321E-1,-1.02404E0
-1.56616E-1,-1.02685E0
-1.33667E-1,-1.02941E0
-1.11206E-1,-1.03259E0
-8.74023E-2,-1.03442E0
-6.64062E-2,-1.03442E0
-4.43115E-2,-1.03613E0
-1.85546E-2,-1.03588E0
0E0,-1.03662E0
0.24414E-1,-1.03564E0
0.45776E-1,-1.03601E0
0.68847E-1,-1.03210E0
0.88989E-1,-1.03222E0
1.12060E-1,-1.02899E0
1.35620E-1,-1.02551E0
1.55456E-1,-1.02307E0
1.79077E-1,-1.01757E0
2.00683E-1,-1.01550E0
2.23022E-1,-1.00976E0
2.44567E-1,-1.00256E0
2.65441E-1,-9.99328E-1
2.86438E-1,-9.92309E-1
3.07312E-1,-9.85961E-1
3.28857E-1,-9.78698E-1
3.48022E-1,-9.69482E-1
3.72009E-1,-9.60998E-1
3.90747E-1,-9.53369E-1
4.10766E-1,-9.45861E-1
4.32312E-1,-9.34997E-1
4.51660E-1,-9.25781E-1
4.72412E-1,-9.15100E-1
4.89624E-1,-9.03442E-1
5.10070E-1,-8.93737E-1
5.27954E-1,-8.83239E-1
5.48522E-1,-8.70605E-1
5.67504E-1,-8.58764E-1
5.85144E-1,-8.47412E-1
6.03027E-1,-8.32397E-1
6.19323E-1,-8.21472E-1
6.37634E-1,-8.05908E-1
6.54846E-1,-7.93151E-1
6.69921E-1,-7.79174E-1
6.85791E-1,-7.64221E-1
7.03979E-1,-7.50122E-1
7.17773E-1,-7.35717E-1
7.33398E-1,-7.19848E-1
7.48168E-1,-7.02880E-1
7.62512E-1,-6.87927E-1
7.76733E-1,-6.72424E-1
7.89367E-1,-6.54418E-1
8.04138E-1,-6.38305E-1
8.19030E-1,-6.21093E-1
8.29650E-1,-6.03881E-1
8.42956E-1,-5.87463E-1
8.53698E-1,-5.68786E-1
8.67187E-1,-5.52734E-1
8.77441E-1,-5.3302E-1
8.88427E-1,-5.14648E-1
8.99963E-1,-4.95849E-1
9.08630E-1,-4.76928E-1
9.18884E-1,-4.59594E-1
9.29016E-1,-4.40063E-1
9.37561E-1,-4.20105E-1
9.47204E-1,-4.01062E-1
END

