CITIFILE A.01.00
#NA VERSION HP8753E.07.12
NAME DATA
VAR FREQ MAG 201
DATA S[1,1] RI
DATA S[2,1] RI
DATA S[1,2] RI
DATA S[2,2] RI
SEG_LIST_BEGIN
SEG 5675000000 5925000000 201
SEG_LIST_END
BEGIN
1.10742E0,-4.19921E-2
1.10705E0,-4.07714E-2
1.10766E0,-4.24804E-2
1.10778E0,-4.17480E-2
1.11035E0,-3.99169E-2
1.10803E0,-4.10156E-2
1.10961E0,-4.08935E-2
1.10717E0,-4.21142E-2
1.10925E0,-4.12597E-2
1.10852E0,-4.16259E-2
1.10803E0,-4.18701E-2
1.11010E0,-4.26025E-2
1.10791E0,-4.06494E-2
1.10876E0,-4.34570E-2
1.10864E0,-4.13818E-2
1.10913E0,-4.33349E-2
1.10961E0,-4.16259E-2
1.10949E0,-4.34570E-2
1.10986E0,-4.21142E-2
1.10778E0,-4.24804E-2
1.10888E0,-4.30908E-2
1.10900E0,-4.29687E-2
1.10876E0,-4.35791E-2
1.10986E0,-4.35791E-2
1.10986E0,-4.21142E-2
1.10864E0,-4.30908E-2
1.11047E0,-4.38232E-2
1.10888E0,-4.38232E-2
1.10717E0,-4.29687E-2
1.10907E0,-4.38232E-2
1.10925E0,-4.23584E-2
1.10974E0,-4.29077E-2
1.10980E0,-4.44946E-2
1.10845E0,-4.07104E-2
1.10870E0,-4.30297E-2
1.10919E0,-4.44335E-2
1.11096E0,-4.32128E-2
1.10882E0,-4.22363E-2
1.11151E0,-4.41894E-2
1.11254E0,-4.30908E-2
1.11334E0,-4.44335E-2
1.11102E0,-4.33349E-2
1.11151E0,-4.28466E-2
1.11077E0,-4.29687E-2
1.11163E0,-4.38842E-2
1.11126E0,-4.52270E-2
1.11145E0,-4.37011E-2
1.11206E0,-4.32739E-2
1.11285E0,-4.32739E-2
1.11297E0,-4.37622E-2
1.11291E0,-4.39453E-2
1.11242E0,-4.44335E-2
1.11352E0,-4.35791E-2
1.11413E0,-4.34570E-2
1.11291E0,-4.35791E-2
1.11279E0,-4.35180E-2
1.11242E0,-4.30908E-2
1.11291E0,-4.32128E-2
1.11242E0,-4.31518E-2
1.11193E0,-4.15039E-2
1.11309E0,-4.3396E-2
1.11157E0,-4.13208E-2
1.11212E0,-4.29077E-2
1.11175E0,-4.19921E-2
1.11364E0,-4.22973E-2
1.11224E0,-4.30908E-2
1.11163E0,-4.28466E-2
1.11248E0,-4.16259E-2
1.11273E0,-4.23584E-2
1.11187E0,-4.20532E-2
1.11273E0,-4.15039E-2
1.11157E0,-4.13818E-2
1.11181E0,-4.20532E-2
1.11230E0,-4.18090E-2
1.11163E0,-4.20532E-2
1.11114E0,-4.16259E-2
1.11151E0,-4.11987E-2
1.11114E0,-4.13818E-2
1.11145E0,-4.11987E-2
1.11096E0,-4.19311E-2
1.10980E0,-4.24804E-2
1.11029E0,-4.21142E-2
1.11071E0,-4.18701E-2
1.10998E0,-4.19921E-2
1.11102E0,-4.30297E-2
1.10937E0,-4.29687E-2
1.11047E0,-4.18701E-2
1.10998E0,-4.27246E-2
1.11010E0,-4.41894E-2
1.10961E0,-4.29687E-2
1.10986E0,-4.30908E-2
1.10986E0,-4.32128E-2
1.10925E0,-4.45556E-2
1.10815E0,-4.32128E-2
1.10925E0,-4.32128E-2
1.10852E0,-4.44335E-2
1.10986E0,-4.30908E-2
1.10839E0,-4.24804E-2
1.10742E0,-4.43115E-2
1.10864E0,-4.28466E-2
1.10778E0,-4.41894E-2
1.10827E0,-4.32128E-2
1.10815E0,-4.35791E-2
1.10852E0,-4.37011E-2
1.10766E0,-4.47998E-2
1.10900E0,-4.47998E-2
1.10900E0,-4.40673E-2
1.10888E0,-4.34570E-2
1.10888E0,-4.28466E-2
1.10925E0,-4.33349E-2
1.11035E0,-4.26025E-2
1.10961E0,-4.22363E-2
1.10888E0,-4.38232E-2
1.10937E0,-4.30908E-2
1.10876E0,-4.26025E-2
1.10961E0,-4.46777E-2
1.10913E0,-4.33349E-2
1.11120E0,-4.32128E-2
1.11022E0,-4.32128E-2
1.10937E0,-4.28466E-2
1.10925E0,-4.29687E-2
1.11132E0,-4.41894E-2
1.10888E0,-4.26025E-2
1.11084E0,-4.37011E-2
1.10888E0,-4.21142E-2
1.11071E0,-4.29687E-2
1.10876E0,-4.24804E-2
1.10900E0,-4.21142E-2
1.10900E0,-4.22973E-2
1.10778E0,-4.27856E-2
1.10845E0,-4.19921E-2
1.10888E0,-4.26635E-2
1.10699E0,-4.36401E-2
1.10876E0,-4.40673E-2
1.10809E0,-4.39453E-2
1.10656E0,-4.37622E-2
1.10833E0,-4.29077E-2
1.10693E0,-4.47387E-2
1.10839E0,-4.45556E-2
1.10748E0,-4.34570E-2
1.10748E0,-4.36401E-2
1.10772E0,-4.43725E-2
1.10858E0,-4.31518E-2
1.10791E0,-4.32739E-2
1.10797E0,-4.46777E-2
1.10852E0,-4.45556E-2
1.10791E0,-4.45556E-2
1.10491E0,-4.58984E-2
1.10699E0,-4.46777E-2
1.10668E0,-4.51049E-2
1.10577E0,-4.55932E-2
1.10803E0,-4.55322E-2
1.10626E0,-4.55932E-2
1.10864E0,-4.60815E-2
1.10498E0,-4.67529E-2
1.10791E0,-4.81567E-2
1.10693E0,-4.69970E-2
1.10534E0,-4.84008E-2
1.10693E0,-4.71191E-2
1.10614E0,-4.66918E-2
1.10571E0,-4.63256E-2
1.10363E0,-4.77905E-2
1.10394E0,-4.84619E-2
1.10534E0,-4.58984E-2
1.10400E0,-4.82788E-2
1.10504E0,-4.69360E-2
1.10559E0,-4.72412E-2
1.10357E0,-4.76074E-2
1.10430E0,-4.84008E-2
1.10455E0,-4.60815E-2
1.10302E0,-4.65698E-2
1.10638E0,-4.68139E-2
1.10424E0,-4.79126E-2
1.10607E0,-4.66308E-2
1.10553E0,-4.71191E-2
1.10369E0,-4.64477E-2
1.10437E0,-4.65087E-2
1.10571E0,-4.67529E-2
1.10437E0,-4.85839E-2
1.10510E0,-4.73632E-2
1.10461E0,-4.62646E-2
1.10461E0,-4.71191E-2
1.10595E0,-4.76074E-2
1.10473E0,-4.58984E-2
1.10498E0,-4.94384E-2
1.10424E0,-4.66308E-2
1.10534E0,-4.88281E-2
1.10522E0,-4.73632E-2
1.10400E0,-4.82177E-2
1.10412E0,-4.87060E-2
1.10412E0,-4.79736E-2
1.10388E0,-4.90722E-2
1.10412E0,-4.78515E-2
1.10302E0,-4.84619E-2
1.10253E0,-4.72412E-2
1.10229E0,-4.88281E-2
1.10229E0,-4.73632E-2
1.10253E0,-4.85839E-2
1.10156E0,-4.79736E-2
1.10327E0,-4.99267E-2
1.10119E0,-4.99267E-2
END
BEGIN
3.50438E-5,-3.59900E-5
0.07469E-5,-2.75839E-5
-4.01884E-5,3.47010E-5
-7.23674E-5,3.18214E-5
1.59200E-5,-5.30853E-6
0.02421E-6,-1.37295E-5
-1.89542E-5,-3.80277E-5
-1.24946E-5,-1.69426E-5
7.18906E-5,-3.43471E-6
-5.67585E-5,-4.17605E-5
2.76640E-5,-4.87268E-5
0.36545E-5,-2.22325E-5
2.66619E-5,-2.69897E-5
2.05468E-5,-2.03214E-6
-1.77379E-5,0.09406E-5
-1.21705E-5,-2.30744E-5
9.19699E-5,-4.27886E-5
-3.53194E-5,-1.60187E-6
0.10505E-5,3.78340E-5
2.79396E-5,3.49320E-5
-3.12887E-5,-4.45544E-6
-1.66706E-5,2.57045E-5
-2.12956E-5,-1.96695E-6
2.25473E-5,0.11771E-5
-3.21175E-5,2.41641E-5
-2.96384E-5,-2.63974E-5
6.27636E-5,0.75250E-5
1.45901E-5,-2.07275E-5
-1.93361E-5,-6.17280E-6
-1.08238E-5,-2.99029E-5
-2.87108E-5,-1.00620E-5
-6.51218E-5,-1.93081E-5
-5.94370E-6,-3.19127E-5
2.55899E-5,0.60973E-5
-2.07992E-5,0.14565E-5
6.35907E-6,7.97957E-6
4.18033E-5,-2.49873E-5
2.20034E-5,0.34077E-5
5.20423E-5,-6.05359E-7
-1.63205E-5,-1.14925E-5
2.34218E-5,0.98533E-5
5.7064E-5,-8.12485E-6
-1.90064E-5,-5.74588E-5
-4.35020E-5,0.12796E-5
3.40715E-5,-1.95670E-5
-7.81528E-5,2.01575E-5
1.90958E-5,2.08932E-5
-5.02001E-5,1.28205E-5
1.67479E-5,0.87469E-5
1.94478E-5,3.54517E-5
4.33027E-5,3.54647E-5
0.67558E-5,-3.45129E-5
-2.61627E-5,0.36880E-5
3.65115E-5,3.99723E-5
2.3284E-5,-9.94373E-6
5.50318E-5,-3.34978E-5
5.36814E-5,-9.64105E-6
-5.69783E-6,-2.42404E-5
-5.43855E-5,-1.79745E-5
3.69623E-5,3.14712E-5
2.65091E-5,0.18179E-5
-1.40024E-5,-1.16135E-6
2.56914E-5,3.93856E-5
-3.19872E-5,0.31292E-5
9.22307E-5,2.55815E-5
-1.72108E-5,-1.97403E-5
5.45103E-5,-1.46627E-5
-1.85454E-5,-1.48201E-5
3.05231E-5,3.32538E-5
3.90410E-5,-1.13658E-5
2.21738E-5,-8.96304E-6
-6.70016E-6,4.51668E-6
4.97568E-5,-1.00489E-5
-3.62284E-6,-4.21274E-5
0.9018E-5,-2.29822E-5
1.40704E-5,2.47303E-5
-3.06442E-5,-1.57095E-5
1.94571E-5,-1.80732E-5
1.01644E-5,4.66462E-5
2.62782E-5,-2.51298E-5
4.61712E-5,-9.57027E-6
-7.80215E-6,1.27214E-5
4.12855E-5,0.76796E-5
2.81520E-5,3.49097E-5
-5.55440E-6,-4.74229E-5
4.56869E-5,3.55765E-5
-2.14055E-5,-1.79000E-5
3.30116E-5,0.30268E-5
-3.51145E-5,-1.12243E-5
9.04426E-5,-1.31726E-5
-3.69176E-6,-1.51153E-5
5.84311E-5,-1.77286E-5
1.86488E-5,5.68777E-5
-2.56113E-5,2.27652E-5
5.57079E-5,-3.81618E-5
1.35898E-5,2.48923E-5
-5.30108E-5,-1.71475E-5
3.04821E-5,-1.31577E-5
1.39847E-5,3.13855E-5
-4.37721E-7,-1.49179E-5
4.90136E-5,-5.50597E-6
3.55280E-5,-1.85351E-5
4.60594E-5,-5.83715E-5
-2.22772E-5,-4.26918E-5
-3.46526E-5,-1.49309E-5
4.22671E-5,0.10058E-5
0.32745E-5,-2.69543E-5
2.31079E-5,-6.37024E-6
-2.08057E-5,-2.22735E-5
-3.29725E-5,-2.88598E-5
5.54062E-5,-2.79322E-5
-2.18711E-5,-2.23666E-5
1.57877E-5,-2.70307E-5
-3.24212E-5,1.55735E-5
0.30342E-5,1.98241E-5
5.83529E-5,2.95862E-5
-3.26745E-5,-2.50563E-5
0.27120E-5,5.66989E-5
6.00367E-5,-4.08217E-5
9.87201E-5,-2.84761E-5
1.90734E-5,-2.47433E-5
1.25961E-5,-6.63939E-6
4.85889E-5,-2.29328E-5
5.22285E-5,2.32085E-5
-1.42306E-6,-5.49517E-5
-9.98191E-6,3.03462E-5
9.34153E-5,1.66595E-5
4.71063E-5,1.75088E-5
6.25886E-5,-1.81943E-5
2.62484E-5,-6.16684E-5
-2.81035E-5,-2.64607E-5
-6.20633E-6,-8.10716E-6
3.97637E-5,1.53705E-5
-6.11692E-6,4.81233E-5
4.91179E-5,-1.30347E-5
2.02246E-5,-3.82475E-5
-9.05990E-6,-2.61217E-5
1.54087E-5,-8.12578E-6
4.90695E-5,2.83792E-5
3.42689E-5,2.52015E-5
5.33461E-5,-2.07088E-5
-2.16476E-5,2.08374E-5
1.07586E-4,-2.11596E-5
-6.93090E-6,1.97049E-5
4.36231E-5,3.36468E-5
2.83941E-5,0.96708E-5
1.95503E-5,-7.75903E-5
1.41691E-5,8.25151E-6
1.84355E-6,5.91576E-6
5.34951E-5,-3.30694E-5
5.59091E-5,-3.22572E-5
2.78987E-5,2.54884E-5
2.92509E-5,3.74466E-5
-2.95769E-5,1.28746E-5
6.41197E-5,-3.73646E-6
-1.69351E-5,-1.18184E-5
7.63163E-5,0.23469E-5
0.28759E-5,-6.41569E-5
2.11242E-5,-2.96067E-5
-7.70576E-6,1.68383E-5
-8.22544E-6,-4.64879E-5
-3.41720E-5,0.71693E-5
6.09085E-5,-4.53516E-5
1.54729E-5,-5.05056E-6
3.77558E-6,-1.48010E-6
4.70131E-5,0.61281E-5
2.51680E-5,-1.81123E-5
-8.30739E-6,-2.90386E-5
1.56611E-5,1.70934E-5
-8.53091E-7,1.39568E-5
1.72592E-5,-3.11881E-5
2.37897E-5,0.35464E-5
3.63215E-5,-6.75991E-5
2.57529E-5,3.87802E-5
2.81948E-5,-5.96046E-7
2.92025E-5,1.01104E-5
3.34475E-5,-1.15986E-5
1.25151E-5,-2.65315E-5
2.75000E-5,-6.51180E-6
-1.26138E-5,-2.47284E-5
-1.65775E-5,-7.25537E-5
3.57721E-6,-8.15745E-6
-1.88238E-5,3.49208E-5
2.39685E-5,2.12155E-5
-9.95490E-6,-4.46103E-7
1.00694E-5,-4.18834E-5
2.57119E-5,4.29227E-5
-3.17357E-5,-5.93811E-6
-3.16277E-5,-4.92855E-5
1.56387E-5,2.31862E-5
-1.42566E-5,3.92235E-5
2.73753E-5,-1.35824E-5
2.15694E-5,0.64019E-5
2.88486E-5,-5.52833E-6
2.68109E-5,2.54884E-5
1.99303E-5,0.25462E-5
-3.05138E-5,0.27474E-5
7.61523E-5,-3.20076E-5
6.09718E-5,0.31590E-5
4.60296E-5,-1.29304E-5
4.24683E-5,-2.07945E-5
END
BEGIN
2.43485E-5,1.61565E-5
3.31476E-5,-8.67247E-5
-3.39001E-6,-3.32016E-6
2.60472E-5,-3.53418E-5
3.75434E-5,-6.10873E-5
-2.63005E-5,-4.14773E-5
-1.81943E-5,-4.34368E-5
0.65323E-5,-1.80434E-5
-8.82521E-6,1.77659E-5
4.29246E-6,-7.82683E-6
4.14811E-5,-3.55467E-5
3.12924E-5,3.41832E-5
-2.29943E-6,-3.14181E-6
1.56899E-5,-5.32437E-6
-2.56206E-6,5.13577E-6
-9.99867E-6,2.45887E-5
2.64383E-5,-5.01722E-5
0.14584E-5,-1.87400E-5
-3.77651E-6,-1.80210E-7
0.84340E-5,-3.68505E-5
2.39498E-5,1.69575E-5
0.05941E-5,2.73417E-5
1.47409E-5,-6.01597E-5
-2.16215E-5,0.92387E-5
0.60871E-5,-1.58473E-5
1.58511E-5,1.52643E-5
1.78143E-5,-3.54126E-5
-6.75469E-5,-4.09185E-5
2.43634E-5,1.41300E-5
-1.63186E-5,3.12738E-5
-1.77137E-6,-1.85426E-5
1.02981E-5,1.19954E-6
-7.89854E-6,-2.20416E-5
4.57204E-5,3.11732E-5
-3.15662E-5,-1.28541E-5
0.35651E-5,-6.18212E-5
1.42753E-5,2.44360E-5
-2.47769E-5,-1.10082E-5
0.60219E-5,2.01184E-5
2.16653E-5,-1.67181E-5
0.22128E-5,-5.23123E-5
-1.26389E-5,1.06501E-5
-1.68569E-6,-1.32834E-5
3.85567E-5,3.81097E-5
2.45319E-5,-2.15135E-7
3.70144E-5,-4.89242E-5
-3.38293E-5,-4.30941E-5
2.26702E-5,1.48564E-5
0.40084E-5,-2.32756E-5
1.82203E-5,2.06474E-5
0.27380E-5,3.25869E-5
-1.75274E-5,-4.12501E-5
-8.29715E-6,7.98981E-6
3.01366E-5,-2.63694E-5
-1.23828E-5,2.30083E-5
5.33573E-5,3.88808E-5
2.69375E-5,-3.64016E-5
0.59474E-5,3.67406E-5
6.55688E-5,0.80131E-5
2.94894E-5,6.41271E-5
1.69985E-5,-3.72231E-5
5.17349E-5,0.07972E-5
-6.17466E-6,-2.23051E-5
3.87132E-5,-3.76552E-5
3.33041E-5,0.62640E-5
-3.50177E-7,-9.11858E-6
-2.45515E-5,3.92962E-5
3.85008E-5,3.30358E-5
1.97868E-5,2.27149E-5
2.58665E-5,-1.2937E-5
2.49352E-5,-1.87121E-5
2.05691E-5,-3.74820E-5
7.60927E-5,4.26098E-5
5.02597E-5,1.78087E-5
1.05965E-5,-3.87914E-5
2.10711E-6,-1.16266E-5
-7.48410E-6,-5.54062E-5
-2.80293E-6,-8.90693E-7
-2.14055E-5,-3.91565E-5
2.12760E-5,0.91465E-5
2.37319E-5,1.24480E-5
1.54059E-5,-1.36438E-5
3.36170E-5,-1.82353E-6
2.60695E-5,-4.08925E-5
1.88611E-5,-3.44365E-5
-1.26874E-5,1.26566E-6
1.31130E-5,7.94976E-6
4.24496E-5,-1.88611E-5
4.66741E-5,-2.84500E-5
5.86453E-6,-1.45519E-5
-1.54469E-5,1.99787E-5
6.80461E-5,-1.55530E-5
2.21319E-5,-6.29574E-6
0.72382E-5,-5.10253E-5
4.01884E-5,-1.70245E-5
3.90447E-5,-4.44054E-5
4.61079E-5,-1.45100E-5
4.82350E-5,-5.71832E-6
1.96341E-5,-2.31713E-5
-1.90176E-6,-1.77193E-5
0.82328E-6,6.85174E-6
5.34020E-6,-1.50948E-5
2.27168E-5,-5.82300E-5
6.17280E-5,-1.22562E-6
-1.80676E-6,-5.44972E-5
3.84673E-5,0.04917E-5
3.40193E-5,-5.86174E-5
4.05013E-5,-2.30968E-7
3.61725E-5,-5.13196E-5
-6.15306E-5,-4.45172E-6
1.97552E-5,-1.96937E-5
0.93653E-5,-3.90447E-5
0.04768E-5,-6.14225E-5
-1.95931E-5,1.27516E-5
1.75945E-5,-5.64232E-5
2.88076E-5,-3.59080E-5
9.77423E-6,-1.26492E-5
-1.43796E-5,-1.29342E-5
2.09156E-5,0.30286E-5
0.68079E-6,4.90387E-6
-3.84710E-5,2.24225E-5
3.94508E-5,0.25928E-5
-6.95698E-6,1.89971E-5
5.17256E-5,-1.04419E-5
2.37710E-5,-1.70450E-5
4.63053E-5,4.68567E-5
0.57071E-5,4.29488E-5
1.78385E-5,-1.65775E-6
0.65434E-5,-2.14409E-5
-2.34320E-5,-4.24981E-5
2.21803E-5,1.55195E-5
-3.69828E-6,5.26523E-6
1.86935E-5,-6.05061E-5
5.02802E-5,0.63292E-5
-6.70924E-6,-1.81831E-5
3.04020E-5,-2.23666E-5
-8.72369E-6,-3.24193E-6
4.79072E-5,-4.16114E-6
1.88611E-5,3.24100E-5
-2.34693E-7,-2.58740E-5
-6.22123E-7,-1.90064E-5
1.21668E-5,-2.46502E-5
0.43325E-5,-2.01836E-5
-5.76488E-6,-3.95067E-6
2.03773E-5,5.19454E-5
3.50736E-5,0.46044E-5
2.53766E-5,5.42104E-5
3.37716E-5,-6.43544E-6
-2.42926E-5,-3.64817E-5
1.17123E-5,2.11149E-5
-1.69202E-5,-2.37897E-5
3.47755E-5,2.81371E-5
3.90745E-5,2.29626E-5
2.07275E-5,2.82824E-5
-4.34787E-6,-2.14902E-6
-1.03935E-5,-3.40119E-5
1.77938E-5,-2.90982E-5
4.60296E-5,3.32444E-5
0.38147E-5,2.68258E-5
0.50012E-5,-1.72779E-5
3.60757E-5,-3.10316E-6
-1.61305E-6,-4.04603E-5
5.70565E-5,0.01527E-5
-2.31452E-5,-3.11322E-5
2.72691E-5,-5.41024E-5
3.99611E-5,-1.78031E-5
0.21532E-5,-5.68069E-5
1.71586E-5,2.68444E-5
-1.84644E-5,1.95652E-5
3.35052E-5,-6.41942E-5
-2.66097E-5,-1.83321E-5
2.35419E-5,-1.23456E-5
-7.72252E-6,-4.54410E-5
5.05428E-6,7.30622E-6
5.20758E-5,-3.40975E-5
5.86034E-6,-1.10874E-6
-1.07931E-5,2.15694E-6
-2.84407E-5,0.28088E-5
2.70432E-6,-1.72550E-6
-1.54599E-6,3.32854E-5
0.26375E-5,3.30992E-5
2.00457E-5,-1.40499E-5
1.17607E-5,4.06429E-5
2.12155E-5,2.94037E-5
1.00843E-5,1.84644E-5
-2.21058E-5,-3.91453E-5
3.58670E-5,2.34246E-5
7.17118E-5,2.45645E-5
5.30406E-5,-1.64285E-6
3.23317E-5,2.8532E-5
2.86139E-5,1.44578E-5
0.58542E-5,-1.58846E-5
2.69990E-5,-3.42726E-7
-8.74512E-6,-2.23182E-5
3.01972E-5,-2.48458E-5
-2.52723E-5,-4.81456E-5
1.17775E-5,-5.14276E-6
8.50297E-6,0.99651E-6
-2.02506E-5,2.03605E-5
3.54610E-5,2.43485E-5
2.33459E-6,1.65915E-6
END
BEGIN
0.02197E-1,1.05578E0
-2.16064E-2,1.05700E0
-4.24804E-2,1.05505E0
-6.37207E-2,1.05529E0
-8.47168E-2,1.05200E0
-1.08032E-1,1.05261E0
-1.29516E-1,1.05041E0
-1.51733E-1,1.04541E0
-1.73584E-1,1.04272E0
-1.95434E-1,1.04199E0
-2.17285E-1,1.03881E0
-2.39013E-1,1.03332E0
-2.60742E-1,1.02990E0
-2.81372E-1,1.02063E0
-3.03710E-1,1.01739E0
-3.26416E-1,1.01190E0
-3.46496E-1,1.00457E0
-3.67492E-1,9.97741E-1
-3.88916E-1,9.89624E-1
-4.08813E-1,9.81567E-1
-4.30236E-1,9.7229E-1
-4.49523E-1,9.64355E-1
-4.70764E-1,9.53796E-1
-4.89746E-1,9.44946E-1
-5.10253E-1,9.3396E-1
-5.32409E-1,9.23828E-1
-5.50598E-1,9.13391E-1
-5.69152E-1,8.99597E-1
-5.91247E-1,8.87146E-1
-6.07635E-1,8.75579E-1
-6.25915E-1,8.62915E-1
-6.44866E-1,8.49700E-1
-6.65130E-1,8.34167E-1
-6.81823E-1,8.20709E-1
-6.99554E-1,8.06701E-1
-7.17041E-1,7.91168E-1
-7.35137E-1,7.74444E-1
-7.50762E-1,7.58606E-1
-7.66326E-1,7.42492E-1
-7.82928E-1,7.26654E-1
-7.97699E-1,7.09533E-1
-8.12225E-1,6.92260E-1
-8.28643E-1,6.73980E-1
-8.42163E-1,6.56341E-1
-8.56536E-1,6.38000E-1
-8.69751E-1,6.19781E-1
-8.82446E-1,6.00555E-1
-8.94043E-1,5.81176E-1
-9.07287E-1,5.60913E-1
-9.19952E-1,5.40771E-1
-9.30450E-1,5.22369E-1
-9.40704E-1,5.03418E-1
-9.51232E-1,4.80316E-1
-9.62280E-1,4.59899E-1
-9.70642E-1,4.39178E-1
-9.79126E-1,4.19372E-1
-9.88342E-1,3.96362E-1
-9.95239E-1,3.75305E-1
-1.00341E0,3.53332E-1
-1.01025E0,3.30017E-1
-1.0177E0,3.10668E-1
-1.02368E0,2.87231E-1
-1.02984E0,2.63183E-1
-1.03607E0,2.43225E-1
-1.03979E0,2.19055E-1
-1.04339E0,1.97631E-1
-1.04644E0,1.71997E-1
-1.05090E0,1.51855E-1
-1.05401E0,1.30188E-1
-1.05676E0,1.05835E-1
-1.05749E0,0.81726E-1
-1.05877E0,0.57922E-1
-1.06140E0,0.3479E-1
-1.06134E0,0.11474E-1
-1.06115E0,-1.17797E-2
-1.06036E0,-3.52783E-2
-1.05853E0,-6.01806E-2
-1.05731E0,-8.10546E-2
-1.05822E0,-1.04492E-1
-1.05230E0,-1.25854E-1
-1.04974E0,-1.49902E-1
-1.04541E0,-1.71752E-1
-1.04339E0,-1.97692E-1
-1.03698E0,-2.18994E-1
-1.03198E0,-2.41149E-1
-1.02551E0,-2.65502E-1
-1.02111E0,-2.87109E-1
-1.01123E0,-3.10058E-1
-1.00378E0,-3.31054E-1
-9.94018E-1,-3.53027E-1
-9.87060E-1,-3.75488E-1
-9.80102E-1,-3.97460E-1
-9.69848E-1,-4.19311E-1
-9.60937E-1,-4.40673E-1
-9.48486E-1,-4.60815E-1
-9.38110E-1,-4.81445E-1
-9.28100E-1,-5.02807E-1
-9.16870E-1,-5.23193E-1
-9.02099E-1,-5.44189E-1
-8.90258E-1,-5.62011E-1
-8.77807E-1,-5.82641E-1
-8.63281E-1,-6.02783E-1
-8.49975E-1,-6.20605E-1
-8.35937E-1,-6.38916E-1
-8.19824E-1,-6.55151E-1
-8.06030E-1,-6.75170E-1
-7.89672E-1,-6.92871E-1
-7.72827E-1,-7.09594E-1
-7.56835E-1,-7.27783E-1
-7.41333E-1,-7.42065E-1
-7.24609E-1,-7.59765E-1
-7.05322E-1,-7.71972E-1
-6.89209E-1,-7.89184E-1
-6.71508E-1,-8.05175E-1
-6.52954E-1,-8.17627E-1
-6.33422E-1,-8.32763E-1
-6.14746E-1,-8.46191E-1
-5.95947E-1,-8.59008E-1
-5.74462E-1,-8.70483E-1
-5.55419E-1,-8.84277E-1
-5.35766E-1,-8.94775E-1
-5.16723E-1,-9.04907E-1
-4.96093E-1,-9.17968E-1
-4.74487E-1,-9.26879E-1
-4.54711E-1,-9.36523E-1
-4.32495E-1,-9.45678E-1
-4.13818E-1,-9.55688E-1
-3.89404E-1,-9.62402E-1
-3.68896E-1,-9.72045E-1
-3.47656E-1,-9.78881E-1
-3.27636E-1,-9.84252E-1
-3.03710E-1,-9.89135E-1
-2.79907E-1,-9.97314E-1
-2.58667E-1,-1.00341E0
-2.36938E-1,-1.00744E0
-2.14721E-1,-1.01086E0
-1.93969E-1,-1.01501E0
-1.71142E-1,-1.01916E0
-1.47705E-1,-1.02270E0
-1.25976E-1,-1.02539E0
-1.02417E-1,-1.02819E0
-8.05664E-2,-1.02978E0
-5.90820E-2,-1.02954E0
-3.64990E-2,-1.03027E0
-1.18408E-2,-1.03027E0
0.06347E-1,-1.03088E0
0.30883E-1,-1.02856E0
0.52002E-1,-1.02880E0
0.74096E-1,-1.02697E0
0.96313E-1,-1.02667E0
1.17553E-1,-1.02264E0
1.40930E-1,-1.01873E0
1.60888E-1,-1.01562E0
1.84692E-1,-1.01080E0
2.05749E-1,-1.00836E0
2.29614E-1,-1.00311E0
2.49816E-1,-9.95666E-1
2.70385E-1,-9.91760E-1
2.92236E-1,-9.85595E-1
3.13232E-1,-9.78332E-1
3.33862E-1,-9.70642E-1
3.53515E-1,-9.61364E-1
3.75976E-1,-9.53308E-1
3.95385E-1,-9.46106E-1
4.14856E-1,-9.37011E-1
4.3573E-1,-9.26696E-1
4.55139E-1,-9.17236E-1
4.75158E-1,-9.06372E-1
4.92981E-1,-8.95996E-1
5.13061E-1,-8.85253E-1
5.30883E-1,-8.74633E-1
5.50659E-1,-8.62365E-1
5.69885E-1,-8.50769E-1
5.87585E-1,-8.39294E-1
6.05773E-1,-8.24585E-1
6.21704E-1,-8.12622E-1
6.38977E-1,-7.97302E-1
6.56494E-1,-7.83996E-1
6.71630E-1,-7.70813E-1
6.87866E-1,-7.55371E-1
7.04589E-1,-7.41027E-1
7.18933E-1,-7.27050E-1
7.34191E-1,-7.10937E-1
7.48474E-1,-6.94274E-1
7.63000E-1,-6.79138E-1
7.76550E-1,-6.63879E-1
7.90161E-1,-6.46118E-1
8.03894E-1,-6.30432E-1
8.18298E-1,-6.12609E-1
8.29345E-1,-5.95642E-1
8.43261E-1,-5.78125E-1
8.53210E-1,-5.60485E-1
8.66394E-1,-5.44189E-1
8.76098E-1,-5.24169E-1
8.87207E-1,-5.06103E-1
8.98559E-1,-4.86572E-1
9.06494E-1,-4.68200E-1
9.17358E-1,-4.50256E-1
9.27063E-1,-4.31640E-1
9.36340E-1,-4.11804E-1
9.44641E-1,-3.92089E-1
END

