CITIFILE A.01.00
#NA VERSION HP8753E.07.12
NAME DATA
VAR FREQ MAG 201
DATA S[1,1] RI
DATA S[2,1] RI
DATA S[1,2] RI
DATA S[2,2] RI
SEG_LIST_BEGIN
SEG 5675000000 5925000000 201
SEG_LIST_END
BEGIN
1.10815E0,-4.16259E-2
1.10827E0,-4.04052E-2
1.10815E0,-4.17480E-2
1.10815E0,-4.22363E-2
1.10974E0,-3.97949E-2
1.10937E0,-4.05273E-2
1.10754E0,-4.13818E-2
1.10852E0,-4.07714E-2
1.10937E0,-4.19921E-2
1.10961E0,-4.12597E-2
1.10913E0,-4.12597E-2
1.10900E0,-4.21142E-2
1.10876E0,-4.08935E-2
1.10876E0,-4.16259E-2
1.10949E0,-4.10156E-2
1.10791E0,-4.23584E-2
1.10900E0,-4.22363E-2
1.10900E0,-4.21142E-2
1.11145E0,-4.22363E-2
1.10827E0,-4.23584E-2
1.10986E0,-4.15039E-2
1.10876E0,-4.28466E-2
1.10913E0,-4.32128E-2
1.10974E0,-4.30908E-2
1.10949E0,-4.16259E-2
1.10864E0,-4.37011E-2
1.10888E0,-4.18701E-2
1.10876E0,-4.37011E-2
1.10815E0,-4.23584E-2
1.10955E0,-4.38232E-2
1.10925E0,-4.28466E-2
1.11077E0,-4.31518E-2
1.11010E0,-4.33349E-2
1.10900E0,-4.16259E-2
1.10864E0,-4.26635E-2
1.10943E0,-4.35791E-2
1.11004E0,-4.40063E-2
1.11071E0,-4.29687E-2
1.11071E0,-4.31518E-2
1.11212E0,-4.30908E-2
1.112E0,-4.29687E-2
1.11236E0,-4.3396E-2
1.11193E0,-4.33349E-2
1.11145E0,-4.32739E-2
1.112E0,-4.29687E-2
1.11254E0,-4.41894E-2
1.11261E0,-4.38232E-2
1.11212E0,-4.37011E-2
1.11090E0,-4.21752E-2
1.11267E0,-4.52270E-2
1.11151E0,-4.34570E-2
1.11364E0,-4.3396E-2
1.11206E0,-4.3396E-2
1.11242E0,-4.28466E-2
1.11352E0,-4.35791E-2
1.11309E0,-4.30297E-2
1.11285E0,-4.34570E-2
1.11273E0,-4.26025E-2
1.11346E0,-4.33349E-2
1.11236E0,-4.29077E-2
1.11157E0,-4.22973E-2
1.11059E0,-4.22363E-2
1.11187E0,-4.32739E-2
1.11175E0,-4.16259E-2
1.11273E0,-4.16259E-2
1.11218E0,-4.27856E-2
1.11169E0,-4.22973E-2
1.11261E0,-4.26635E-2
1.11242E0,-4.07714E-2
1.11187E0,-4.08325E-2
1.11096E0,-4.11377E-2
1.11187E0,-4.10156E-2
1.11242E0,-4.21142E-2
1.11126E0,-4.11377E-2
1.11242E0,-4.17480E-2
1.11114E0,-4.16870E-2
1.11145E0,-4.21142E-2
1.11077E0,-4.02832E-2
1.11193E0,-4.11377E-2
1.11090E0,-4.14428E-2
1.11022E0,-4.24194E-2
1.11084E0,-4.24804E-2
1.11077E0,-4.10766E-2
1.11035E0,-4.22363E-2
1.11096E0,-4.19311E-2
1.11035E0,-4.33349E-2
1.11108E0,-4.26025E-2
1.10998E0,-4.27246E-2
1.11047E0,-4.38232E-2
1.11010E0,-4.28466E-2
1.10998E0,-4.27246E-2
1.10913E0,-4.30908E-2
1.10937E0,-4.34570E-2
1.10852E0,-4.24804E-2
1.10900E0,-4.28466E-2
1.10815E0,-4.39453E-2
1.10937E0,-4.37011E-2
1.10827E0,-4.28466E-2
1.10839E0,-4.37011E-2
1.10900E0,-4.23584E-2
1.10791E0,-4.38232E-2
1.10852E0,-4.26025E-2
1.10864E0,-4.34570E-2
1.10827E0,-4.32128E-2
1.10742E0,-4.41894E-2
1.10864E0,-4.46777E-2
1.10864E0,-4.30908E-2
1.10888E0,-4.33349E-2
1.10900E0,-4.24804E-2
1.10925E0,-4.22363E-2
1.11059E0,-4.22363E-2
1.10961E0,-4.17480E-2
1.10900E0,-4.40673E-2
1.10949E0,-4.26025E-2
1.10888E0,-4.30908E-2
1.10986E0,-4.50439E-2
1.10937E0,-4.24804E-2
1.11145E0,-4.27246E-2
1.11059E0,-4.24804E-2
1.11010E0,-4.28466E-2
1.10913E0,-4.24804E-2
1.11096E0,-4.35791E-2
1.10803E0,-4.22363E-2
1.11059E0,-4.40673E-2
1.10949E0,-4.28466E-2
1.10974E0,-4.33349E-2
1.10900E0,-4.21142E-2
1.10839E0,-4.18701E-2
1.10876E0,-4.19311E-2
1.10760E0,-4.37011E-2
1.10888E0,-4.12597E-2
1.10961E0,-4.21752E-2
1.10748E0,-4.27246E-2
1.10736E0,-4.40673E-2
1.10876E0,-4.27246E-2
1.10668E0,-4.41894E-2
1.10845E0,-4.30297E-2
1.10681E0,-4.37011E-2
1.10858E0,-4.49829E-2
1.10833E0,-4.27856E-2
1.10784E0,-4.24194E-2
1.10760E0,-4.22363E-2
1.10852E0,-4.43115E-2
1.10858E0,-4.32739E-2
1.10791E0,-4.55322E-2
1.10870E0,-4.37011E-2
1.10754E0,-4.48608E-2
1.10485E0,-4.65087E-2
1.10821E0,-4.47387E-2
1.10620E0,-4.43115E-2
1.10553E0,-4.50439E-2
1.10717E0,-4.55932E-2
1.10626E0,-4.60815E-2
1.10809E0,-4.52270E-2
1.10400E0,-4.66918E-2
1.10711E0,-4.71191E-2
1.10723E0,-4.71801E-2
1.10693E0,-4.77294E-2
1.10711E0,-4.80346E-2
1.10546E0,-4.63256E-2
1.10614E0,-4.74243E-2
1.10546E0,-4.70581E-2
1.10565E0,-4.93164E-2
1.10522E0,-4.66308E-2
1.10540E0,-4.80346E-2
1.10437E0,-4.62036E-2
1.10491E0,-4.68139E-2
1.10376E0,-4.82177E-2
1.10498E0,-4.73632E-2
1.10412E0,-4.49218E-2
1.10327E0,-4.64477E-2
1.10571E0,-4.62036E-2
1.10363E0,-4.73022E-2
1.10565E0,-4.63867E-2
1.10522E0,-4.60205E-2
1.10479E0,-4.57763E-2
1.10473E0,-4.6875E-2
1.10546E0,-4.57763E-2
1.10290E0,-4.80346E-2
1.10363E0,-4.82177E-2
1.10412E0,-4.50439E-2
1.10571E0,-4.66308E-2
1.10498E0,-4.66308E-2
1.10498E0,-4.58984E-2
1.10632E0,-4.87060E-2
1.10571E0,-4.67529E-2
1.10412E0,-4.72412E-2
1.10424E0,-4.73632E-2
1.10363E0,-4.72412E-2
1.10290E0,-4.88281E-2
1.10388E0,-4.76074E-2
1.10376E0,-4.83398E-2
1.10522E0,-4.90722E-2
1.10205E0,-4.76074E-2
1.10339E0,-4.85839E-2
1.10363E0,-4.99267E-2
1.10253E0,-4.77294E-2
1.10400E0,-4.87060E-2
1.10205E0,-4.80957E-2
1.10217E0,-4.93164E-2
1.10131E0,-4.90722E-2
END
BEGIN
5.91874E-5,-5.64307E-5
-9.65036E-6,1.98930E-6
1.19544E-5,1.37686E-5
-2.80961E-5,3.57925E-5
0.24866E-5,-2.92770E-5
1.21966E-5,-5.97871E-5
-9.22381E-6,-3.60831E-5
-1.55344E-5,-3.32184E-5
5.96493E-5,0.42356E-5
-1.24275E-5,-5.44078E-6
1.48192E-5,-3.82959E-5
3.00854E-5,-3.43844E-5
-2.76044E-5,-2.75522E-5
1.84290E-5,0.16056E-5
1.27870E-5,-2.55294E-5
-2.54809E-5,-1.43013E-5
4.84623E-5,-4.82760E-5
-4.88609E-5,-2.94819E-5
0.80950E-5,2.86661E-5
-1.23418E-5,-2.43447E-6
1.08396E-5,-1.43554E-5
-4.53740E-5,-2.11671E-5
2.80775E-5,2.71908E-5
-4.56683E-5,-1.04308E-7
-2.85506E-5,2.15675E-5
-3.76552E-5,-5.01424E-6
2.61217E-5,0.92871E-5
1.45919E-5,-3.68766E-5
0.40177E-5,2.17724E-5
-1.48043E-5,-5.37037E-5
-1.80937E-5,0.67092E-5
-4.89279E-5,-5.52050E-5
4.48077E-5,2.71089E-5
-1.17840E-5,1.44504E-5
-9.04314E-6,-3.62154E-5
2.53506E-5,-3.46899E-5
1.6734E-5,2.68872E-5
-2.40234E-6,-9.09250E-6
2.13217E-5,3.3658E-5
-4.21330E-5,1.17421E-5
2.33501E-5,2.70940E-5
2.08588E-5,-1.49011E-7
-1.16736E-5,-3.65544E-6
-1.58548E-5,3.75360E-5
3.87970E-5,1.08312E-5
-3.62601E-5,1.35898E-5
-1.09230E-5,1.46939E-5
-5.08278E-5,0.21364E-5
2.22399E-5,-1.88890E-5
2.45794E-5,3.88491E-5
0.38053E-5,4.81214E-5
2.19056E-5,-1.70273E-5
4.41502E-5,1.75572E-5
1.39605E-5,-3.08957E-5
1.22878E-5,-1.81468E-5
1.07511E-5,2.50786E-5
7.27176E-5,4.44427E-5
1.64946E-5,-5.22378E-6
0.99809E-5,-1.81971E-5
4.69759E-5,4.56385E-5
4.47016E-5,0.68433E-5
-1.41235E-6,-8.98446E-6
2.45645E-5,8.45268E-5
2.20742E-5,0.23255E-5
4.39472E-5,0.01248E-5
0.55432E-5,-3.66643E-5
4.87379E-5,1.32676E-5
5.51762E-6,-1.08862E-5
5.47319E-5,-2.99066E-5
6.84410E-5,2.15582E-5
5.31431E-5,0.69625E-5
-9.29925E-6,-8.30274E-6
4.30215E-5,-3.63402E-5
2.21040E-5,1.17933E-5
-1.54580E-5,-3.27155E-5
1.84690E-5,0.99018E-5
1.38236E-5,4.59700E-6
0.86827E-5,1.92299E-5
2.07144E-5,1.33561E-5
6.43953E-5,-2.29477E-6
2.61627E-5,2.28341E-5
0.77504E-5,-5.22621E-5
2.61468E-5,-1.16154E-5
1.56164E-5,5.05894E-5
1.69947E-5,-3.05250E-5
2.89902E-5,6.20633E-5
-1.06208E-5,-3.65898E-5
3.28347E-5,0.86166E-5
-4.15444E-5,-5.46872E-5
3.80314E-5,-3.93018E-5
-1.35079E-5,3.84599E-5
1.52345E-5,-1.15409E-5
6.42649E-5,-2.53319E-6
-5.20832E-5,0.9045E-5
4.56906E-5,0.06966E-5
1.12950E-5,5.20870E-5
3.04859E-5,-1.01942E-5
7.69794E-5,-4.83989E-5
7.70296E-6,-8.68924E-6
3.11881E-5,-3.11285E-5
4.02256E-5,-9.50694E-6
9.90741E-6,9.87015E-6
-1.70841E-5,-2.79769E-5
5.87441E-5,-3.90559E-5
-5.02392E-5,-1.25505E-5
1.25858E-5,-1.88034E-6
0.30957E-5,-3.62470E-5
2.62688E-5,-1.61211E-5
4.75272E-5,-2.46092E-5
-3.44142E-5,-3.75136E-5
6.53043E-5,4.11346E-5
-7.61263E-6,9.99774E-6
-3.91192E-5,2.09175E-5
-1.98707E-5,6.69062E-5
5.03994E-5,-4.25800E-6
-9.15303E-6,5.63301E-5
-8.21799E-6,-3.48761E-5
-7.68750E-5,-2.29626E-5
3.79607E-5,-4.58695E-5
1.33514E-5,-1.91237E-5
1.47260E-5,-2.69971E-5
2.69804E-5,0.05736E-5
3.64407E-5,0.15981E-5
2.14520E-5,-2.77832E-5
-2.39834E-5,-5.03733E-5
-3.38219E-5,2.87778E-5
3.01897E-5,0.89556E-5
1.73039E-5,0.41592E-5
7.71433E-5,-9.42498E-6
0.43455E-5,-1.66278E-5
-1.82390E-5,-4.25130E-5
4.87119E-5,5.47766E-5
4.18163E-5,-3.24621E-5
1.19246E-5,1.52513E-5
9.90256E-5,0.91493E-5
4.22261E-5,0.87879E-5
-3.80445E-7,4.91831E-6
3.46452E-5,-1.44764E-5
5.79357E-5,-2.68220E-6
4.61116E-5,1.43051E-5
4.08552E-5,-2.55703E-5
2.23442E-5,1.39996E-5
1.05664E-4,-1.04084E-5
3.40044E-5,0.81583E-5
6.17727E-5,1.82315E-5
6.42612E-5,2.11447E-5
2.30632E-5,-2.68369E-5
0.14826E-5,-3.84077E-5
2.77161E-6,6.41495E-6
4.14550E-5,-4.44576E-5
4.14066E-5,-1.94683E-5
4.97102E-5,-2.75708E-5
-1.63838E-5,2.93776E-5
2.01407E-5,1.17849E-5
-9.54046E-6,-2.73585E-5
-2.33799E-5,-3.27229E-5
6.42985E-5,-1.0591E-5
-1.04866E-5,-4.12277E-5
6.26482E-5,-4.87119E-5
-5.22807E-5,4.40366E-5
-5.14090E-6,3.09459E-5
-5.66877E-5,0.30733E-5
3.39448E-5,-1.13342E-5
2.43168E-5,-1.26175E-5
-1.12988E-5,-2.40877E-5
2.61962E-5,3.26409E-5
1.39260E-5,-1.87661E-6
-3.34344E-6,-8.34744E-6
3.09236E-5,-2.41212E-6
1.87326E-5,-1.37258E-5
1.67805E-5,-8.28411E-6
3.75509E-6,1.28522E-5
3.74019E-5,-7.20173E-5
4.17642E-5,-6.07222E-7
3.34046E-5,-7.03893E-6
4.52324E-5,0.06407E-5
-8.65012E-6,-3.07150E-5
-8.47503E-8,-5.23682E-6
4.12128E-5,-3.73236E-5
-1.58995E-5,-6.53863E-5
-8.84756E-6,-3.99053E-5
4.32245E-5,0.53606E-5
0.14044E-5,2.52295E-5
2.64607E-5,-1.28690E-5
2.88188E-5,-1.15949E-5
5.11407E-5,-5.59985E-5
-2.22772E-6,3.99313E-5
-5.38975E-5,-4.68865E-5
-3.83183E-5,-4.75868E-5
-2.70083E-6,2.83382E-5
0.88289E-5,-3.51108E-5
-3.39373E-5,-2.39945E-5
3.09310E-5,-3.04766E-5
3.73385E-5,0.21234E-5
1.43079E-5,-5.90179E-6
1.71102E-5,2.49445E-5
-3.29241E-5,3.83965E-5
6.43916E-5,-1.89058E-5
4.16450E-5,-2.22548E-5
0.43567E-5,-1.98520E-5
4.77954E-5,-6.85751E-5
END
BEGIN
2.96048E-5,0.04209E-5
-5.94556E-6,-2.78502E-5
0.21699E-6,1.04224E-5
1.74436E-5,-2.42628E-5
2.86065E-5,-4.34406E-5
-4.75347E-6,-5.26346E-5
-2.80886E-5,-6.31809E-5
2.23293E-5,-4.84064E-5
-3.66047E-5,-1.23828E-5
-1.28839E-5,2.84574E-5
3.06032E-5,-4.21851E-5
2.87452E-6,-7.17770E-6
4.56571E-5,-3.81022E-5
-9.63918E-7,-4.55929E-6
-3.01003E-6,-2.70120E-5
-4.96488E-6,8.87829E-6
1.18240E-5,-7.50497E-5
-5.10737E-5,-2.15619E-5
-3.01748E-7,-4.39733E-5
0.05215E-5,-5.40055E-5
-1.97067E-6,-2.73175E-5
-5.05968E-5,-6.82845E-6
1.43786E-5,-1.54785E-6
0.58370E-6,2.49105E-6
-3.27974E-5,-2.74255E-5
1.94199E-5,2.73995E-5
0.99465E-5,-2.18916E-5
3.41609E-5,-1.37202E-5
2.39815E-6,1.26613E-5
-2.68276E-5,1.75219E-5
0.47553E-5,-2.27075E-5
-1.86590E-5,3.02419E-5
-1.86674E-5,-3.95737E-5
2.33687E-5,3.31793E-5
1.36178E-5,-2.58684E-5
1.09700E-5,-2.82749E-5
1.76038E-5,4.55994E-5
2.23033E-5,2.28006E-5
2.45291E-5,2.00569E-5
-6.40749E-6,-5.7403E-5
1.02687E-5,-5.47357E-5
1.43535E-5,3.95625E-5
-2.23405E-5,0.14156E-5
-1.75405E-5,5.67641E-5
5.69187E-5,1.79223E-5
1.52462E-5,-8.65710E-6
-9.98377E-6,-3.69884E-5
0.90897E-5,4.25130E-5
4.46569E-5,-5.31971E-6
5.17107E-5,2.17370E-5
-8.34651E-6,5.03622E-5
-2.12714E-5,1.76094E-5
2.01826E-5,-6.41681E-6
3.49152E-5,1.69463E-5
-2.59513E-6,-7.64755E-6
5.27836E-5,7.16969E-5
-1.98809E-5,2.49370E-5
2.96086E-5,3.79532E-5
5.29121E-5,-2.15377E-5
-4.84101E-6,3.85604E-5
-2.05058E-5,-2.95192E-5
4.65940E-5,-1.20699E-6
0.74375E-5,-3.34810E-5
-6.21192E-6,-4.39137E-5
4.86820E-5,3.04654E-5
6.28829E-6,1.02846E-5
-7.38073E-6,2.82898E-5
7.33994E-5,2.09212E-5
5.77718E-5,-5.33275E-6
-1.30664E-6,-1.91889E-5
2.72644E-5,-2.81371E-5
4.23155E-5,-1.07660E-6
4.21609E-5,-2.96272E-5
7.05272E-5,1.88536E-5
0.73798E-5,-6.84261E-5
7.24848E-6,1.28969E-5
1.48862E-5,-5.24800E-6
1.42906E-5,-6.68596E-6
0.72903E-5,-4.17064E-5
3.63439E-5,3.14712E-5
2.58749E-5,-2.92603E-5
-2.67289E-6,-1.55400E-5
2.00346E-5,0.37746E-5
4.23677E-5,-6.00963E-5
-3.02884E-5,-3.08863E-5
2.34078E-5,-2.30595E-5
1.61044E-5,2.16811E-5
2.04667E-5,-1.18129E-5
-2.52239E-5,-1.00210E-5
2.79024E-5,0.93355E-5
-1.07698E-5,4.97475E-5
1.51656E-5,-1.02398E-5
1.33942E-5,1.49253E-5
0.41350E-5,-6.48349E-5
5.26942E-5,-2.50600E-5
4.93377E-5,-4.61302E-5
3.15830E-5,-9.27224E-6
2.82470E-6,-1.47083E-5
1.59014E-5,-2.30651E-5
2.62334E-5,0.08512E-5
4.06056E-5,4.41893E-5
-1.82054E-5,0.04638E-5
1.82539E-5,-7.18087E-5
3.72976E-5,-1.31055E-5
1.77267E-5,-1.41765E-5
2.81278E-5,-2.04779E-5
1.24163E-5,-2.03102E-5
3.92943E-5,2.89976E-5
-1.31875E-5,-4.88646E-5
-6.74091E-6,-1.14627E-5
-9.00402E-6,-1.94795E-5
0.70706E-5,-2.88561E-5
-1.56909E-5,-4.71174E-5
0.11995E-5,4.13209E-5
-1.09672E-5,-6.95735E-5
-3.40864E-6,-1.86227E-5
1.23139E-5,1.19302E-5
3.89665E-5,0.41648E-5
1.09002E-5,1.42753E-5
0.28172E-6,-7.42170E-6
6.18696E-5,2.41100E-5
-9.15396E-6,1.86730E-6
-1.09374E-5,1.47428E-5
0.17397E-5,-4.91477E-5
8.86432E-6,-1.02482E-5
1.66222E-5,-1.60727E-5
1.83470E-5,2.07610E-5
3.65562E-5,-2.57119E-5
1.72737E-6,-1.21211E-6
4.68306E-5,-2.81408E-5
3.08752E-5,-3.70107E-6
0.13187E-5,3.37660E-5
-4.02331E-5,-2.82749E-5
0.57509E-6,-6.05871E-6
-2.45682E-5,-2.48253E-5
-7.26338E-6,-4.12855E-6
1.36159E-6,9.49297E-6
2.73622E-5,-1.42548E-5
6.27785E-5,1.32024E-5
0.11771E-5,-3.05064E-5
3.73125E-5,-1.99712E-5
4.53032E-5,-4.19542E-5
-2.07200E-5,-2.69375E-5
-1.27255E-5,-3.29129E-5
0.82841E-6,-2.64751E-6
4.36864E-5,0.28535E-5
-3.09757E-6,1.77137E-5
3.36244E-5,1.13882E-5
0.31404E-5,3.08081E-5
1.99303E-5,-8.29435E-6
-2.94372E-5,3.32482E-5
4.22038E-5,0.43027E-5
2.34171E-5,2.84761E-5
4.77246E-5,0.77262E-5
-1.46329E-5,3.20263E-5
2.53934E-5,-1.32732E-5
3.64407E-5,-2.13086E-6
0.33155E-5,2.82786E-5
-5.68665E-6,2.66563E-5
3.63215E-5,-1.61305E-5
1.61714E-5,-3.40044E-5
2.08355E-5,-1.61863E-6
2.11503E-5,-5.54882E-6
0.29616E-5,-3.99872E-5
3.20635E-5,-4.78737E-5
1.38357E-5,-2.87182E-5
1.94385E-5,-4.04827E-5
0.41946E-5,-2.32439E-5
4.52287E-5,0.83409E-5
5.01647E-5,-4.65661E-5
2.49557E-5,-1.18538E-5
-4.52995E-6,2.62558E-5
-2.16066E-7,-5.97313E-5
4.52883E-5,-2.65538E-5
0.55898E-5,-1.55E-5
-3.58596E-5,-3.22684E-5
-1.30310E-5,3.91528E-5
-4.97885E-6,1.90939E-5
1.89431E-5,-1.26790E-5
-8.88854E-6,3.49097E-5
-5.15021E-6,2.50712E-5
4.14997E-5,2.45049E-5
4.21032E-5,3.49804E-5
9.32440E-5,-2.64123E-5
1.25281E-5,2.77794E-5
-6.69807E-6,-3.33320E-6
1.10846E-5,-1.61211E-5
5.02877E-5,-4.58210E-6
5.16995E-5,-1.00396E-5
7.31349E-5,-2.50116E-5
3.43993E-5,0.01639E-5
-1.44802E-5,-2.40691E-5
3.12980E-5,-4.06056E-6
-1.03255E-5,8.26362E-6
2.87275E-5,-3.76254E-6
-6.19515E-6,-4.26471E-5
3.36691E-5,-3.79309E-5
1.34566E-5,-1.48238E-5
5.69671E-5,1.77472E-5
4.06876E-5,2.96458E-5
0.98459E-5,3.44999E-5
END
BEGIN
0.02563E-1,1.05566E0
-2.18505E-2,1.05810E0
-4.30908E-2,1.05481E0
-6.45752E-2,1.05517E0
-8.60595E-2,1.05297E0
-1.08032E-1,1.05163E0
-1.29882E-1,1.04919E0
-1.51855E-1,1.04541E0
-1.74194E-1,1.04333E0
-1.95800E-1,1.04126E0
-2.17651E-1,1.03869E0
-2.39379E-1,1.03393E0
-2.61108E-1,1.02941E0
-2.81127E-1,1.02050E0
-3.04321E-1,1.01702E0
-3.26965E-1,1.01184E0
-3.46374E-1,1.00396E0
-3.68347E-1,9.98046E-1
-3.88855E-1,9.89074E-1
-4.08813E-1,9.81323E-1
-4.29931E-1,9.72473E-1
-4.50134E-1,9.64599E-1
-4.70764E-1,9.53918E-1
-4.90783E-1,9.44946E-1
-5.10986E-1,9.34265E-1
-5.33325E-1,9.23767E-1
-5.50903E-1,9.12902E-1
-5.69641E-1,8.99597E-1
-5.91613E-1,8.87390E-1
-6.07543E-1,8.75640E-1
-6.26342E-1,8.62670E-1
-6.45507E-1,8.49823E-1
-6.66046E-1,8.34686E-1
-6.82128E-1,8.20983E-1
-6.99768E-1,8.07006E-1
-7.17773E-1,7.90954E-1
-7.35534E-1,7.74505E-1
-7.50762E-1,7.57934E-1
-7.66235E-1,7.41729E-1
-7.82531E-1,7.26562E-1
-7.98187E-1,7.09320E-1
-8.12286E-1,6.91986E-1
-8.28460E-1,6.73522E-1
-8.42987E-1,6.56585E-1
-8.56262E-1,6.38183E-1
-8.70025E-1,6.19842E-1
-8.83300E-1,6.00585E-1
-8.94744E-1,5.81878E-1
-9.07287E-1,5.6073E-1
-9.20318E-1,5.40649E-1
-9.30481E-1,5.22644E-1
-9.40918E-1,5.02746E-1
-9.50836E-1,4.79034E-1
-9.62280E-1,4.61151E-1
-9.72168E-1,4.39300E-1
-9.79095E-1,4.19158E-1
-9.88861E-1,3.96575E-1
-9.9646E-1,3.75640E-1
-1.00286E0,3.54370E-1
-1.01019E0,3.30444E-1
-1.01782E0,3.09814E-1
-1.02404E0,2.86438E-1
-1.02972E0,2.63122E-1
-1.03552E0,2.43103E-1
-1.03961E0,2.18322E-1
-1.04345E0,1.97509E-1
-1.04602E0,1.72363E-1
-1.05017E0,1.51977E-1
-1.05365E0,1.29882E-1
-1.05682E0,1.06933E-1
-1.05719E0,0.82580E-1
-1.05981E0,0.59143E-1
-1.06140E0,0.34851E-1
-1.06158E0,0.12085E-1
-1.06097E0,-1.25732E-2
-1.06042E0,-3.59497E-2
-1.05969E0,-5.92651E-2
-1.05816E0,-8.03222E-2
-1.0578E0,-1.04309E-1
-1.05285E0,-1.27807E-1
-1.04974E0,-1.50695E-1
-1.04595E0,-1.71936E-1
-1.04235E0,-1.96228E-1
-1.03698E0,-2.19482E-1
-1.03234E0,-2.41577E-1
-1.02575E0,-2.66845E-1
-1.01989E0,-2.87109E-1
-1.01220E0,-3.09936E-1
-1.00378E0,-3.32275E-1
-9.94873E-1,-3.54248E-1
-9.86572E-1,-3.75244E-1
-9.79003E-1,-3.98681E-1
-9.70947E-1,-4.19067E-1
-9.59960E-1,-4.40429E-1
-9.48730E-1,-4.61181E-1
-9.375E-1,-4.82177E-1
-9.27490E-1,-5.02563E-1
-9.15893E-1,-5.24658E-1
-9.02343E-1,-5.42602E-1
-8.88427E-1,-5.63232E-1
-8.77563E-1,-5.83740E-1
-8.64257E-1,-6.00952E-1
-8.49731E-1,-6.21948E-1
-8.33129E-1,-6.38793E-1
-8.18969E-1,-6.55395E-1
-8.05786E-1,-6.75781E-1
-7.89062E-1,-6.91650E-1
-7.73803E-1,-7.08984E-1
-7.57080E-1,-7.28149E-1
-7.41088E-1,-7.42065E-1
-7.23632E-1,-7.60498E-1
-7.05688E-1,-7.72705E-1
-6.90429E-1,-7.88330E-1
-6.69677E-1,-8.03955E-1
-6.52954E-1,-8.17993E-1
-6.33300E-1,-8.33618E-1
-6.14990E-1,-8.46923E-1
-5.95581E-1,-8.58154E-1
-5.75195E-1,-8.70361E-1
-5.55175E-1,-8.84643E-1
-5.34057E-1,-8.93798E-1
-5.16357E-1,-9.04541E-1
-4.95849E-1,-9.17724E-1
-4.77294E-1,-9.27124E-1
-4.55078E-1,-9.36523E-1
-4.33227E-1,-9.44702E-1
-4.13574E-1,-9.56298E-1
-3.91113E-1,-9.62402E-1
-3.68774E-1,-9.72168E-1
-3.48266E-1,-9.79248E-1
-3.25805E-1,-9.85595E-1
-3.03588E-1,-9.88891E-1
-2.81005E-1,-9.97436E-1
-2.59765E-1,-1.00231E0
-2.35839E-1,-1.00805E0
-2.14111E-1,-1.01232E0
-1.93481E-1,-1.01477E0
-1.71264E-1,-1.01867E0
-1.47827E-1,-1.02233E0
-1.25976E-1,-1.02539E0
-1.02783E-1,-1.02758E0
-7.99560E-2,-1.03027E0
-5.92041E-2,-1.02893E0
-3.58886E-2,-1.03186E0
-1.19628E-2,-1.02966E0
0.07690E-1,-1.03076E0
0.31005E-1,-1.02880E0
0.52490E-1,-1.02954E0
0.75439E-1,-1.02661E0
0.96130E-1,-1.02624E0
1.19018E-1,-1.02276E0
1.40319E-1,-1.01886E0
1.61071E-1,-1.01641E0
1.85119E-1,-1.01141E0
2.05200E-1,-1.00787E0
2.30285E-1,-1.00250E0
2.49694E-1,-9.95727E-1
2.70324E-1,-9.91333E-1
2.92053E-1,-9.85107E-1
3.12194E-1,-9.78332E-1
3.34411E-1,-9.70825E-1
3.53210E-1,-9.61303E-1
3.75976E-1,-9.53247E-1
3.95324E-1,-9.45739E-1
4.15283E-1,-9.375E-1
4.36340E-1,-9.26818E-1
4.55505E-1,-9.17297E-1
4.75463E-1,-9.06372E-1
4.93774E-1,-8.95568E-1
5.13488E-1,-8.85314E-1
5.31189E-1,-8.74633E-1
5.50903E-1,-8.62365E-1
5.69641E-1,-8.49975E-1
5.87707E-1,-8.38134E-1
6.06140E-1,-8.23791E-1
6.21887E-1,-8.13354E-1
6.40014E-1,-7.97302E-1
6.5625E-1,-7.85217E-1
6.71508E-1,-7.70813E-1
6.87744E-1,-7.55737E-1
7.05078E-1,-7.41088E-1
7.19055E-1,-7.27417E-1
7.34802E-1,-7.10571E-1
7.49206E-1,-6.94580E-1
7.63366E-1,-6.78344E-1
7.77099E-1,-6.63269E-1
7.90100E-1,-6.45996E-1
8.04443E-1,-6.29516E-1
8.18237E-1,-6.12182E-1
8.29589E-1,-5.9552E-1
8.42590E-1,-5.77880E-1
8.53698E-1,-5.60058E-1
8.66272E-1,-5.43396E-1
8.76098E-1,-5.24169E-1
8.87756E-1,-5.05615E-1
8.99108E-1,-4.86633E-1
9.07287E-1,-4.67895E-1
9.16809E-1,-4.50439E-1
9.27368E-1,-4.31335E-1
9.37072E-1,-4.11071E-1
9.44580E-1,-3.92089E-1
END

