CITIFILE A.01.00
#NA VERSION HP8753E.07.12
NAME DATA
VAR FREQ MAG 201
DATA S[1,1] RI
DATA S[2,1] RI
DATA S[1,2] RI
DATA S[2,2] RI
SEG_LIST_BEGIN
SEG 5675000000 5925000000 201
SEG_LIST_END
BEGIN
1.10815E0,-4.13818E-2
1.10852E0,-3.99169E-2
1.10803E0,-4.18701E-2
1.10778E0,-4.17480E-2
1.10900E0,-4.08935E-2
1.10791E0,-3.96728E-2
1.10839E0,-4.08935E-2
1.10876E0,-4.06494E-2
1.10974E0,-3.94287E-2
1.10937E0,-4.12597E-2
1.10913E0,-4.12597E-2
1.11010E0,-4.23584E-2
1.10803E0,-4.07714E-2
1.10937E0,-4.11377E-2
1.10888E0,-4.10156E-2
1.10925E0,-4.13818E-2
1.10925E0,-4.19921E-2
1.10900E0,-4.23584E-2
1.10949E0,-4.32128E-2
1.10937E0,-4.26025E-2
1.11010E0,-4.21142E-2
1.10900E0,-4.23584E-2
1.10888E0,-4.38232E-2
1.10986E0,-4.23584E-2
1.10852E0,-4.12597E-2
1.10913E0,-4.33349E-2
1.10961E0,-4.32128E-2
1.10864E0,-4.28466E-2
1.10961E0,-4.27246E-2
1.10974E0,-4.12597E-2
1.11022E0,-4.30908E-2
1.10986E0,-4.26025E-2
1.10864E0,-4.33349E-2
1.10882E0,-4.33349E-2
1.11059E0,-4.25415E-2
1.10992E0,-4.42504E-2
1.11047E0,-4.24194E-2
1.11120E0,-4.21142E-2
1.11065E0,-4.23584E-2
1.11120E0,-4.37622E-2
1.11236E0,-4.35791E-2
1.11145E0,-4.18090E-2
1.11126E0,-4.32739E-2
1.11328E0,-4.26635E-2
1.11169E0,-4.35180E-2
1.11224E0,-4.31518E-2
1.11279E0,-4.35791E-2
1.11108E0,-4.23584E-2
1.11401E0,-4.25415E-2
1.11419E0,-4.32128E-2
1.11224E0,-4.34570E-2
1.11407E0,-4.29687E-2
1.112E0,-4.26635E-2
1.11370E0,-4.21752E-2
1.11340E0,-4.21752E-2
1.11108E0,-4.29077E-2
1.11383E0,-4.21142E-2
1.11261E0,-4.22363E-2
1.11431E0,-4.26025E-2
1.11309E0,-4.28466E-2
1.11169E0,-4.24194E-2
1.11138E0,-4.24804E-2
1.11114E0,-4.20532E-2
1.11340E0,-4.25415E-2
1.11279E0,-4.25415E-2
1.11206E0,-4.19311E-2
1.11254E0,-4.17480E-2
1.11230E0,-4.11987E-2
1.112E0,-4.00390E-2
1.11291E0,-4.14428E-2
1.11096E0,-4.13208E-2
1.11193E0,-4.02221E-2
1.11077E0,-4.11987E-2
1.11181E0,-4.16259E-2
1.11157E0,-4.08935E-2
1.11151E0,-3.99169E-2
1.11322E0,-4.13818E-2
1.11114E0,-4.03442E-2
1.11212E0,-4.05883E-2
1.11114E0,-4.10156E-2
1.11077E0,-4.13208E-2
1.11065E0,-4.24804E-2
1.11047E0,-4.11987E-2
1.11059E0,-4.15039E-2
1.11096E0,-4.29077E-2
1.10986E0,-4.24804E-2
1.11035E0,-4.17480E-2
1.11022E0,-4.24804E-2
1.11022E0,-4.35791E-2
1.11047E0,-4.28466E-2
1.10949E0,-4.28466E-2
1.10900E0,-4.27246E-2
1.10913E0,-4.38232E-2
1.10839E0,-4.29687E-2
1.10913E0,-4.23584E-2
1.10815E0,-4.38232E-2
1.10949E0,-4.28466E-2
1.10852E0,-4.26025E-2
1.10815E0,-4.40673E-2
1.10888E0,-4.24804E-2
1.10754E0,-4.39453E-2
1.10827E0,-4.24804E-2
1.10791E0,-4.34570E-2
1.10827E0,-4.26025E-2
1.10754E0,-4.41894E-2
1.10913E0,-4.43115E-2
1.10913E0,-4.28466E-2
1.10876E0,-4.29687E-2
1.10900E0,-4.26025E-2
1.10937E0,-4.22363E-2
1.11010E0,-4.21142E-2
1.10937E0,-4.17480E-2
1.10900E0,-4.29687E-2
1.10900E0,-4.24804E-2
1.10815E0,-4.29687E-2
1.10949E0,-4.45556E-2
1.10937E0,-4.29687E-2
1.11157E0,-4.29687E-2
1.11096E0,-4.23584E-2
1.11010E0,-4.22363E-2
1.10974E0,-4.19921E-2
1.11084E0,-4.32128E-2
1.10864E0,-4.22363E-2
1.11084E0,-4.28466E-2
1.10961E0,-4.22363E-2
1.11022E0,-4.21142E-2
1.10888E0,-4.15039E-2
1.10864E0,-4.22363E-2
1.10907E0,-4.08935E-2
1.10833E0,-4.32739E-2
1.10882E0,-4.09545E-2
1.10900E0,-4.18701E-2
1.10766E0,-4.19311E-2
1.10907E0,-4.40673E-2
1.10815E0,-4.24194E-2
1.10607E0,-4.30908E-2
1.10864E0,-4.27246E-2
1.10687E0,-4.39453E-2
1.10900E0,-4.44335E-2
1.10845E0,-4.27246E-2
1.10778E0,-4.28466E-2
1.10699E0,-4.40063E-2
1.10864E0,-4.35791E-2
1.10742E0,-4.29077E-2
1.10937E0,-4.46777E-2
1.10907E0,-4.35791E-2
1.10766E0,-4.38232E-2
1.10632E0,-4.57763E-2
1.10742E0,-4.22363E-2
1.10754E0,-4.44946E-2
1.10784E0,-4.40673E-2
1.10736E0,-4.43115E-2
1.10607E0,-4.57763E-2
1.10754E0,-4.65087E-2
1.10534E0,-4.61425E-2
1.10717E0,-4.62646E-2
1.10736E0,-4.69970E-2
1.10711E0,-4.82177E-2
1.10754E0,-4.64477E-2
1.10553E0,-4.73632E-2
1.10565E0,-4.79736E-2
1.10467E0,-4.76074E-2
1.10467E0,-4.93774E-2
1.10559E0,-4.60815E-2
1.10705E0,-4.60205E-2
1.10424E0,-4.68139E-2
1.10473E0,-4.57763E-2
1.10546E0,-4.78515E-2
1.10400E0,-4.80957E-2
1.10522E0,-4.57153E-2
1.10351E0,-4.60205E-2
1.10626E0,-4.69360E-2
1.10308E0,-4.82788E-2
1.10498E0,-4.54101E-2
1.10394E0,-4.65087E-2
1.10308E0,-4.66308E-2
1.10522E0,-4.56543E-2
1.10534E0,-4.58984E-2
1.10437E0,-4.66308E-2
1.10412E0,-4.65087E-2
1.10400E0,-4.71191E-2
1.10424E0,-4.62646E-2
1.10620E0,-4.63867E-2
1.10498E0,-4.66308E-2
1.10620E0,-4.71191E-2
1.10437E0,-4.74853E-2
1.10461E0,-4.63867E-2
1.10559E0,-4.73632E-2
1.10449E0,-4.74853E-2
1.10424E0,-4.72412E-2
1.10498E0,-4.84619E-2
1.10339E0,-4.79736E-2
1.10388E0,-4.89502E-2
1.10424E0,-4.83398E-2
1.10266E0,-4.80957E-2
1.10363E0,-4.94384E-2
1.10314E0,-4.83398E-2
1.10205E0,-4.90722E-2
1.10253E0,-4.93164E-2
1.10290E0,-4.89502E-2
1.10302E0,-4.88281E-2
END
BEGIN
0.12405E-5,-3.46936E-5
1.86301E-5,2.08132E-5
-3.34642E-5,2.36593E-5
-1.90474E-5,0.54743E-5
1.00070E-5,-5.74626E-7
0.09946E-5,-4.94569E-5
-3.88473E-5,-4.84287E-5
-3.35052E-5,-1.53519E-5
5.26346E-5,-8.11368E-6
-4.84362E-5,-1.12801E-5
-1.27106E-5,-1.96322E-5
3.34195E-5,-3.37511E-5
-1.63130E-5,-1.18147E-5
7.30669E-6,-2.77534E-6
-2.63117E-5,1.74343E-5
-7.09854E-6,-1.99507E-5
8.85427E-5,-6.01112E-5
-9.95770E-6,-1.27740E-5
-8.59610E-6,-1.04922E-5
3.05418E-5,-9.34861E-6
-6.44335E-6,-1.05844E-6
-8.63894E-6,3.46042E-5
-2.34320E-5,3.28905E-5
-1.31940E-5,1.00396E-6
-4.52362E-5,2.82526E-5
3.06032E-5,0.81099E-5
5.26942E-5,-3.39634E-5
-4.28035E-6,-4.57465E-6
-1.84159E-5,-1.44727E-6
-3.48351E-5,1.00322E-5
0.28703E-5,1.93007E-5
-6.99460E-5,-6.33969E-5
1.12801E-5,1.68448E-5
1.44024E-5,-1.06869E-6
-1.79931E-5,1.10240E-5
3.40156E-5,-1.76597E-5
2.12546E-5,1.99545E-5
1.62469E-5,0.11324E-5
3.59322E-5,2.41380E-5
-3.23206E-5,-3.65823E-5
0.14212E-5,-4.77302E-5
5.64791E-5,-2.07871E-5
-2.13249E-6,-3.40840E-6
-2.16811E-5,6.25886E-5
5.09079E-5,-2.13310E-5
-5.71347E-5,-3.75211E-5
-8.52160E-7,1.63829E-5
-1.04252E-5,-1.43423E-7
-5.89527E-7,-1.35288E-5
2.81799E-5,1.91144E-5
-1.34855E-5,1.91815E-5
8.10027E-5,-2.71163E-5
1.74529E-5,-4.59365E-5
6.40191E-5,-2.95899E-5
1.95102E-5,-2.99699E-6
3.27155E-5,1.73188E-5
4.71659E-5,2.64868E-5
6.70440E-5,-3.90037E-6
-2.87639E-5,0.80671E-5
9.24244E-5,6.11841E-5
5.01889E-5,-9.08970E-6
4.67784E-5,1.23959E-5
4.88832E-5,8.05929E-5
-6.52000E-5,1.98073E-5
1.29295E-5,-2.61832E-5
-2.37301E-5,-5.54435E-5
1.50348E-5,-1.40997E-5
8.93557E-6,-1.01542E-5
2.65101E-5,-1.53742E-5
1.32963E-4,0.07681E-4
-3.29911E-5,-2.75671E-5
1.53370E-5,-7.68061E-6
5.98877E-5,-7.03334E-6
0.94939E-5,-2.42712E-5
-2.93031E-5,-1.88034E-5
3.30470E-5,3.77409E-5
6.25662E-5,4.33512E-5
5.09359E-5,-2.24113E-5
1.03116E-5,2.49315E-5
1.00890E-5,3.99770E-6
6.19627E-5,-3.33227E-5
2.00290E-5,-2.58339E-5
5.21317E-5,-6.60307E-6
-1.33644E-7,9.45059E-7
-1.67917E-6,-2.75094E-5
2.95862E-5,4.66257E-5
-1.41840E-5,2.37282E-5
2.99997E-5,0.72605E-5
0.20396E-5,-2.56709E-5
3.63104E-5,-2.73622E-5
-2.61701E-5,4.22485E-5
2.88039E-5,0.87954E-5
4.77396E-5,-5.29736E-6
0.46566E-5,4.96320E-5
3.30247E-5,-1.49421E-5
-7.66851E-6,1.91275E-5
-1.56164E-5,-4.24943E-5
0.22165E-5,-4.46438E-5
4.23714E-5,0.67278E-5
5.83045E-5,-1.77845E-5
1.39866E-5,-2.79862E-5
1.90623E-5,-3.23317E-5
-2.68966E-6,-6.76140E-5
5.02094E-5,-2.87294E-5
-4.12352E-5,0.76443E-5
1.5039E-5,-1.46962E-5
-4.69386E-5,-4.57689E-5
2.80793E-5,-2.52798E-5
2.12751E-5,-8.58865E-6
-1.55810E-5,-1.72592E-5
2.37431E-5,-2.49333E-5
-2.36891E-5,-1.35377E-5
1.53025E-5,0.17983E-5
-6.28493E-5,4.44948E-5
5.52274E-5,-2.13049E-5
4.79146E-5,3.38554E-5
-1.69798E-5,-3.98680E-5
-9.07294E-6,1.83749E-5
2.58944E-5,-5.1599E-5
2.68649E-5,-3.26335E-6
6.50473E-5,-4.46736E-5
2.13291E-5,-2.81855E-5
2.43000E-5,0.15832E-5
5.78686E-5,2.55852E-5
-3.01823E-5,-6.04242E-5
-5.41936E-6,7.02682E-6
5.05149E-5,0.41164E-5
1.31223E-5,1.26510E-5
4.59551E-5,0.18440E-5
0.14193E-5,-4.76315E-5
2.23871E-5,-2.17780E-5
-1.06194E-6,3.38442E-6
2.41883E-5,1.45323E-5
2.41044E-5,-1.42306E-5
7.07954E-5,-2.13235E-5
4.84511E-5,-4.53777E-5
2.57473E-5,-2.14837E-5
6.41979E-5,-2.01501E-5
5.88558E-5,-1.37165E-5
6.12661E-5,2.24486E-5
4.17381E-5,-1.38953E-5
1.55866E-5,6.79567E-5
5.94034E-5,1.82688E-5
3.80054E-5,-1.77174E-5
0.93281E-5,2.39424E-5
1.35842E-5,1.57970E-5
-1.97179E-5,-3.08007E-5
1.89729E-5,-3.72640E-5
6.96033E-5,-2.03400E-6
1.59554E-5,-6.23911E-5
-1.71139E-5,-3.59565E-5
6.41234E-5,-3.298E-5
0.05886E-5,5.12376E-5
8.43405E-5,2.10478E-5
-6.57700E-6,2.95639E-5
1.52699E-5,-4.82350E-5
4.57763E-5,-3.80873E-5
3.75956E-5,-4.94569E-5
2.17072E-5,-5.54025E-5
-1.63540E-5,0.06808E-5
1.42976E-5,1.92746E-5
1.03861E-5,2.31526E-5
4.27551E-5,-5.34691E-5
2.74963E-5,0.92312E-5
3.91900E-5,-2.57380E-5
5.23403E-5,-2.08988E-6
3.09310E-5,-1.19209E-7
1.48294E-5,-7.07432E-6
2.64551E-5,-3.11434E-6
-1.09542E-5,2.02991E-5
4.5266E-5,-8.55326E-6
2.82209E-5,-9.87388E-6
0.71637E-5,-5.80251E-5
4.16003E-5,1.17979E-5
1.92858E-5,3.50363E-5
5.11109E-5,3.06591E-5
3.01599E-5,-3.69027E-5
3.56845E-5,-1.89114E-5
1.06394E-5,-3.76366E-5
4.11868E-5,-1.88089E-5
-1.30049E-5,-4.36715E-5
2.76882E-6,-1.27162E-5
-1.46403E-6,1.16666E-5
3.19853E-5,1.17644E-5
9.80589E-6,0.92014E-6
5.48288E-5,-1.68159E-5
5.28618E-5,0.79199E-5
-2.99923E-5,-3.36542E-5
0.91288E-5,-2.27969E-5
1.41598E-5,5.56930E-6
-3.18456E-5,2.00662E-5
1.87940E-5,0.44517E-5
-1.47996E-5,9.66712E-6
2.94745E-5,1.70059E-5
0.78454E-5,-1.58492E-5
7.96932E-6,7.74022E-6
-1.63614E-5,4.94718E-5
2.26553E-5,-2.97017E-5
5.31077E-5,2.03996E-5
-6.74463E-6,-1.40909E-5
3.79011E-5,-5.18932E-5
END
BEGIN
1.30105E-5,-1.04066E-5
0.48838E-5,-1.83824E-5
-2.74553E-5,-4.20212E-5
-3.83704E-6,-4.71957E-5
4.20920E-5,-4.96245E-5
2.16029E-5,-5.36218E-5
-2.11689E-6,-6.84987E-6
3.20076E-5,-5.96083E-5
-8.47783E-6,6.75674E-6
-7.29784E-6,7.44871E-6
1.90399E-5,-3.35723E-5
0.23320E-5,4.75384E-5
1.20028E-5,-3.22684E-5
-2.58721E-6,5.22332E-6
-2.22995E-5,-4.44203E-5
-4.69759E-6,-1.47707E-5
5.66151E-6,-9.44826E-6
-2.30222E-6,-4.59402E-5
-1.60504E-5,-1.54823E-5
1.40778E-5,-3.84859E-5
-5.40539E-6,3.86349E-5
-1.72182E-5,1.66557E-5
-7.89761E-6,2.04555E-5
-1.08601E-5,3.85753E-6
1.30385E-5,-1.89710E-5
6.11022E-5,1.13099E-5
5.48847E-5,-8.95559E-6
4.19188E-6,1.12364E-5
-7.00261E-6,1.77370E-6
0.16670E-6,-1.39074E-5
-3.17543E-5,2.03866E-5
-2.03028E-7,5.80214E-6
-3.35592E-5,-2.55703E-5
0.08139E-5,3.94359E-5
-2.12919E-5,-1.65198E-5
2.69077E-5,-6.71781E-5
0.26226E-5,5.97499E-5
-9.36398E-6,6.79073E-6
2.29310E-5,3.31886E-5
1.39488E-5,1.41561E-6
0.23432E-5,-5.72782E-5
-5.06695E-5,2.55052E-5
1.69975E-5,-2.40141E-5
2.17929E-5,4.55267E-5
3.35965E-5,-4.30122E-5
4.45637E-5,-3.06200E-5
0.28908E-5,-5.09917E-5
1.44075E-5,2.25398E-5
1.42399E-5,-3.54796E-5
-3.55020E-6,6.32852E-5
4.77768E-5,5.18560E-5
-1.38767E-6,-1.79261E-5
4.66741E-5,-7.90134E-6
2.86568E-5,0.09648E-5
-2.79359E-5,0.01164E-5
5.40018E-5,6.48535E-5
2.45412E-5,-5.01517E-6
3.12924E-6,3.05334E-6
5.59724E-5,0.61076E-5
2.21058E-5,1.40704E-5
1.43572E-5,-2.62884E-5
1.52317E-5,7.77561E-6
-3.75299E-6,-4.40422E-6
5.26588E-5,-3.52356E-5
5.13177E-5,0.02160E-5
-3.29129E-6,1.28033E-5
-9.20519E-6,1.57067E-5
2.14520E-5,2.46036E-5
3.24528E-5,-1.9297E-6
1.37444E-5,-2.36118E-5
-2.21505E-5,-5.05447E-5
4.89652E-5,-3.01450E-5
4.07751E-5,-7.26431E-8
2.70027E-5,0.39767E-5
1.35358E-5,-4.90434E-5
6.80284E-6,-4.51272E-6
-8.37817E-6,0.19837E-6
2.80328E-5,4.36343E-5
-1.36531E-6,-3.37399E-5
2.08783E-5,3.75714E-5
2.16104E-5,-8.77585E-6
-5.37745E-6,-3.06014E-5
3.05306E-5,1.19302E-5
4.77172E-5,-3.88510E-5
3.59974E-5,-4.57726E-5
3.24845E-5,-5.32716E-7
2.88207E-5,-7.38166E-6
4.04864E-5,-1.12503E-5
7.75419E-6,-8.77678E-6
4.04231E-5,-4.55528E-5
4.57279E-5,-9.02265E-6
3.39858E-5,-5.07570E-6
0.56847E-5,4.62494E-5
1.22059E-5,-1.69668E-5
4.88162E-5,1.74678E-5
-4.32878E-6,-4.77694E-5
4.60352E-6,-1.01840E-5
2.48700E-5,1.18911E-5
3.16351E-5,-1.04010E-5
4.80935E-5,-2.96905E-6
-2.23144E-6,-6.58538E-6
1.60569E-5,-1.40024E-5
2.62334E-5,-5.43370E-5
3.29949E-5,-1.75349E-5
3.05734E-5,-5.29326E-5
-3.16649E-7,3.11732E-5
2.25715E-5,-4.76166E-5
1.61286E-5,-1.30245E-5
0.45485E-5,-5.02020E-5
-3.52095E-5,1.59256E-5
4.49530E-5,0.28461E-5
4.56832E-5,-3.43397E-5
1.00433E-5,-6.89402E-5
1.89431E-5,-1.84774E-6
1.23828E-5,-5.97238E-5
2.21803E-5,-4.94532E-5
-2.21543E-5,-4.10713E-5
1.85743E-5,-4.35486E-5
-1.88499E-6,-4.14699E-5
1.26017E-5,-1.08331E-5
1.00601E-5,-1.05146E-5
1.82576E-5,1.56574E-5
-2.68183E-5,-2.43522E-5
1.14431E-5,-1.26846E-5
1.96397E-5,-6.67572E-5
0.03986E-5,2.06865E-5
4.42080E-5,0.68992E-5
4.38913E-5,-4.82201E-5
4.04678E-5,-2.70418E-5
-1.15707E-5,-6.05434E-5
3.78601E-5,1.00620E-5
2.50674E-5,0.60778E-5
1.15353E-5,-3.53902E-8
5.44078E-6,-6.29387E-6
-2.42777E-5,-3.72976E-5
-2.34358E-5,-2.60882E-5
0.41946E-5,-3.08025E-5
2.97166E-5,2.02842E-5
2.24839E-5,-1.18855E-5
0.09946E-5,-1.63000E-5
4.71025E-5,0.46044E-5
2.39908E-5,-4.86560E-5
-2.38679E-5,-3.55504E-5
-1.37165E-5,-2.31824E-5
3.01376E-5,2.33352E-5
3.05138E-5,-4.97959E-5
0.23916E-5,2.60844E-5
3.98531E-5,2.10739E-5
2.11224E-5,-1.24629E-5
2.13831E-5,4.33847E-5
0.30640E-5,-1.72425E-5
5.42998E-5,2.79024E-5
4.01660E-5,4.02033E-5
7.31274E-5,1.10864E-5
-5.79804E-5,6.10575E-5
1.94758E-5,-1.83079E-5
-8.71904E-6,-1.85705E-6
-3.24957E-5,3.21976E-5
7.13579E-6,1.31428E-5
-1.51302E-5,-1.02184E-5
4.27849E-6,-8.83266E-6
-2.0504E-5,-2.62968E-5
9.88319E-5,4.30792E-5
0.12293E-5,-1.69742E-5
4.65959E-5,-1.95987E-5
1.45994E-5,-3.44440E-5
-1.32322E-5,-2.33911E-5
2.38921E-5,-2.63098E-5
3.17003E-5,-8.93883E-6
2.28304E-5,-2.60733E-5
-4.71249E-7,-5.50923E-6
0.39078E-5,3.59788E-5
0.53718E-5,-4.28222E-5
3.33823E-5,-4.50685E-5
5.62220E-5,1.92895E-5
-3.6899E-5,-2.15843E-5
-2.23405E-5,3.75397E-5
-4.73968E-5,3.50028E-5
-3.84077E-6,-2.63936E-5
-3.05660E-6,2.05002E-5
-1.60392E-5,2.76733E-5
5.40055E-5,-3.49991E-5
3.15979E-5,0.91120E-5
8.07717E-5,0.47460E-5
-3.22349E-5,-3.30768E-5
-1.75293E-5,-1.45174E-5
3.85120E-5,1.62050E-5
4.15593E-5,0.26896E-5
7.51391E-5,0.41499E-5
4.52846E-5,-1.04606E-5
4.79780E-5,-1.35004E-5
-3.71150E-5,-2.96533E-5
4.70057E-5,-1.99005E-5
-3.44961E-6,-3.59490E-6
2.09435E-5,-3.90522E-5
-3.73162E-5,-4.12389E-6
2.00495E-5,-3.18437E-5
0.86277E-5,2.53766E-5
2.08448E-5,-1.16415E-6
3.34829E-5,5.56260E-5
-1.48583E-5,-1.22115E-5
END
BEGIN
0.01586E-1,1.05529E0
-2.20947E-2,1.05798E0
-4.39453E-2,1.05517E0
-6.45752E-2,1.05664E0
-8.69140E-2,1.05285E0
-1.09497E-1,1.05273E0
-1.29760E-1,1.05041E0
-1.51733E-1,1.04565E0
-1.74682E-1,1.04357E0
-1.96167E-1,1.04223E0
-2.17895E-1,1.03881E0
-2.39135E-1,1.03344E0
-2.60986E-1,1.02917E0
-2.81738E-1,1.02111E0
-3.04321E-1,1.01727E0
-3.27209E-1,1.01202E0
-3.47351E-1,1.00439E0
-3.68103E-1,9.98352E-1
-3.89160E-1,9.88769E-1
-4.08996E-1,9.81567E-1
-4.30481E-1,9.7229E-1
-4.50073E-1,9.64111E-1
-4.72351E-1,9.53796E-1
-4.90844E-1,9.44641E-1
-5.10742E-1,9.34265E-1
-5.32959E-1,9.23522E-1
-5.50964E-1,9.13085E-1
-5.69641E-1,8.99719E-1
-5.91918E-1,8.87268E-1
-6.07666E-1,8.75183E-1
-6.26709E-1,8.62731E-1
-6.45233E-1,8.48938E-1
-6.65435E-1,8.33953E-1
-6.82678E-1,8.20251E-1
-6.99585E-1,8.06274E-1
-7.17651E-1,7.89917E-1
-7.35717E-1,7.74566E-1
-7.50762E-1,7.59002E-1
-7.67242E-1,7.41363E-1
-7.83203E-1,7.26409E-1
-7.98339E-1,7.08953E-1
-8.12286E-1,6.91528E-1
-8.29345E-1,6.72943E-1
-8.42193E-1,6.55700E-1
-8.56811E-1,6.37664E-1
-8.69903E-1,6.19201E-1
-8.82904E-1,6.00097E-1
-8.95172E-1,5.80139E-1
-9.07928E-1,5.6073E-1
-9.21142E-1,5.40008E-1
-9.30877E-1,5.22674E-1
-9.41436E-1,5.02319E-1
-9.51629E-1,4.79644E-1
-9.62219E-1,4.60815E-1
-9.71283E-1,4.39422E-1
-9.80011E-1,4.18701E-1
-9.88830E-1,3.96545E-1
-9.95941E-1,3.75488E-1
-1.00262E0,3.53820E-1
-1.01092E0,3.30444E-1
-1.01776E0,3.0896E-1
-1.02429E0,2.86132E-1
-1.02984E0,2.63061E-1
-1.03515E0,2.42431E-1
-1.03997E0,2.17468E-1
-1.04382E0,1.97509E-1
-1.04724E0,1.71814E-1
-1.04956E0,1.51123E-1
-1.05322E0,1.29211E-1
-1.05609E0,1.05835E-1
-1.05822E0,0.80627E-1
-1.06042E0,0.58471E-1
-1.06121E0,0.35217E-1
-1.06170E0,0.11840E-1
-1.06152E0,-1.34887E-2
-1.06085E0,-3.57055E-2
-1.05896E0,-6.03637E-2
-1.05859E0,-7.95288E-2
-1.05706E0,-1.04126E-1
-1.05249E0,-1.28234E-1
-1.05029E0,-1.51550E-1
-1.04742E0,-1.72485E-1
-1.03997E0,-1.96350E-1
-1.03698E0,-2.19726E-1
-1.03228E0,-2.42797E-1
-1.02612E0,-2.65258E-1
-1.01879E0,-2.87963E-1
-1.01147E0,-3.10424E-1
-1.00390E0,-3.32519E-1
-9.94384E-1,-3.54736E-1
-9.87182E-1,-3.76220E-1
-9.78393E-1,-3.97583E-1
-9.69848E-1,-4.19677E-1
-9.60571E-1,-4.40795E-1
-9.49096E-1,-4.62524E-1
-9.38964E-1,-4.81079E-1
-9.26879E-1,-5.03173E-1
-9.16137E-1,-5.23559E-1
-9.02954E-1,-5.43945E-1
-8.89648E-1,-5.64086E-1
-8.77807E-1,-5.85083E-1
-8.64013E-1,-6.00463E-1
-8.48877E-1,-6.21337E-1
-8.34228E-1,-6.38916E-1
-8.17627E-1,-6.55029E-1
-8.06518E-1,-6.74438E-1
-7.89917E-1,-6.92627E-1
-7.73559E-1,-7.09106E-1
-7.58422E-1,-7.27661E-1
-7.43164E-1,-7.42431E-1
-7.23510E-1,-7.60864E-1
-7.05444E-1,-7.72705E-1
-6.89331E-1,-7.89184E-1
-6.69921E-1,-8.06030E-1
-6.53198E-1,-8.17016E-1
-6.33544E-1,-8.33618E-1
-6.14990E-1,-8.46435E-1
-5.95581E-1,-8.58642E-1
-5.74829E-1,-8.70117E-1
-5.55664E-1,-8.84765E-1
-5.35522E-1,-8.94287E-1
-5.15869E-1,-9.07104E-1
-4.9646E-1,-9.18212E-1
-4.76318E-1,-9.28100E-1
-4.55322E-1,-9.36157E-1
-4.32251E-1,-9.44946E-1
-4.13085E-1,-9.57275E-1
-3.89892E-1,-9.62280E-1
-3.68164E-1,-9.73266E-1
-3.4729E-1,-9.79614E-1
-3.26293E-1,-9.85473E-1
-3.02490E-1,-9.90844E-1
-2.80151E-1,-9.98901E-1
-2.59033E-1,-1.00207E0
-2.37182E-1,-1.00683E0
-2.14843E-1,-1.01135E0
-1.93725E-1,-1.01574E0
-1.71508E-1,-1.01965E0
-1.48071E-1,-1.02270E0
-1.25732E-1,-1.02478E0
-1.02783E-1,-1.02807E0
-8.08105E-2,-1.03015E0
-5.87158E-2,-1.02941E0
-3.58886E-2,-1.03088E0
-1.07421E-2,-1.03051E0
0.07568E-1,-1.03161E0
0.30883E-1,-1.02880E0
0.53222E-1,-1.02807E0
0.74585E-1,-1.0271E0
0.96069E-1,-1.02600E0
1.18957E-1,-1.02325E0
1.41784E-1,-1.01861E0
1.61193E-1,-1.01574E0
1.85363E-1,-1.01226E0
2.06848E-1,-1.00805E0
2.30285E-1,-1.00305E0
2.50061E-1,-9.95910E-1
2.70752E-1,-9.91149E-1
2.92236E-1,-9.85107E-1
3.13659E-1,-9.79492E-1
3.34960E-1,-9.71618E-1
3.53393E-1,-9.60876E-1
3.76037E-1,-9.53308E-1
3.95568E-1,-9.46044E-1
4.15283E-1,-9.36523E-1
4.36157E-1,-9.26696E-1
4.55566E-1,-9.16809E-1
4.76074E-1,-9.06372E-1
4.93469E-1,-8.94836E-1
5.13732E-1,-8.85009E-1
5.31494E-1,-8.74633E-1
5.51147E-1,-8.62182E-1
5.70251E-1,-8.50219E-1
5.87219E-1,-8.38317E-1
6.05957E-1,-8.24096E-1
6.21887E-1,-8.13171E-1
6.40441E-1,-7.96997E-1
6.56860E-1,-7.84240E-1
6.71875E-1,-7.70690E-1
6.87805E-1,-7.55188E-1
7.05383E-1,-7.41210E-1
7.19421E-1,-7.26989E-1
7.35595E-1,-7.10632E-1
7.49267E-1,-6.94335E-1
7.63427E-1,-6.78161E-1
7.77160E-1,-6.63269E-1
7.90649E-1,-6.45568E-1
8.04321E-1,-6.29882E-1
8.18542E-1,-6.11816E-1
8.30200E-1,-5.95214E-1
8.43994E-1,-5.77636E-1
8.54064E-1,-5.59692E-1
8.66088E-1,-5.43457E-1
8.76709E-1,-5.24292E-1
8.88000E-1,-5.05615E-1
8.99292E-1,-4.86084E-1
9.07348E-1,-4.67895E-1
9.17419E-1,-4.49890E-1
9.27429E-1,-4.31213E-1
9.36035E-1,-4.11377E-1
9.45129E-1,-3.92089E-1
END

