CITIFILE A.01.00
#NA VERSION HP8753E.07.12
NAME DATA
VAR FREQ MAG 201
DATA S[1,1] RI
DATA S[2,1] RI
DATA S[1,2] RI
DATA S[2,2] RI
SEG_LIST_BEGIN
SEG 5675000000 5925000000 201
SEG_LIST_END
BEGIN
1.10827E0,-4.37011E-2
1.10803E0,-4.40673E-2
1.10900E0,-4.43115E-2
1.10815E0,-4.39453E-2
1.10961E0,-4.22363E-2
1.10742E0,-4.32128E-2
1.10900E0,-4.29687E-2
1.10900E0,-4.44335E-2
1.10888E0,-4.26025E-2
1.10986E0,-4.33349E-2
1.10986E0,-4.39453E-2
1.10949E0,-4.47998E-2
1.10937E0,-4.16259E-2
1.10937E0,-4.37011E-2
1.10949E0,-4.50439E-2
1.10913E0,-4.47998E-2
1.11047E0,-4.43115E-2
1.10998E0,-4.34570E-2
1.11084E0,-4.54101E-2
1.11047E0,-4.54101E-2
1.11010E0,-4.44335E-2
1.10937E0,-4.45556E-2
1.10949E0,-4.54101E-2
1.10900E0,-4.43115E-2
1.11035E0,-4.50439E-2
1.10937E0,-4.77294E-2
1.10986E0,-4.57763E-2
1.11059E0,-4.46777E-2
1.11047E0,-4.61425E-2
1.11108E0,-4.43115E-2
1.10949E0,-4.59594E-2
1.11004E0,-4.60815E-2
1.11126E0,-4.53491E-2
1.11077E0,-4.48608E-2
1.11084E0,-4.61425E-2
1.11187E0,-4.52880E-2
1.11169E0,-4.56543E-2
1.11138E0,-4.52270E-2
1.11077E0,-4.47998E-2
1.11248E0,-4.46777E-2
1.11065E0,-4.55932E-2
1.11291E0,-4.58374E-2
1.11315E0,-4.55932E-2
1.11261E0,-4.65698E-2
1.11187E0,-4.57763E-2
1.11279E0,-4.62646E-2
1.11389E0,-4.59594E-2
1.11303E0,-4.49218E-2
1.11474E0,-4.53491E-2
1.11431E0,-4.54101E-2
1.11419E0,-4.62646E-2
1.11346E0,-4.58984E-2
1.11157E0,-4.51660E-2
1.11395E0,-4.47387E-2
1.11364E0,-4.57153E-2
1.11279E0,-4.51049E-2
1.11377E0,-4.42504E-2
1.11468E0,-4.65698E-2
1.11370E0,-4.54101E-2
1.11377E0,-4.46167E-2
1.11364E0,-4.46167E-2
1.11212E0,-4.47387E-2
1.112E0,-4.55322E-2
1.11212E0,-4.50439E-2
1.11328E0,-4.42504E-2
1.11218E0,-4.44946E-2
1.11218E0,-4.51049E-2
1.11328E0,-4.42504E-2
1.11248E0,-4.41894E-2
1.11328E0,-4.35180E-2
1.11291E0,-4.43725E-2
1.11370E0,-4.37622E-2
1.11242E0,-4.3396E-2
1.11309E0,-4.43115E-2
1.11315E0,-4.36401E-2
1.11126E0,-4.37622E-2
1.11254E0,-4.39453E-2
1.11163E0,-4.32128E-2
1.11206E0,-4.40673E-2
1.11169E0,-4.42504E-2
1.11114E0,-4.47387E-2
1.11084E0,-4.47998E-2
1.11065E0,-4.42504E-2
1.11077E0,-4.43725E-2
1.11145E0,-4.54711E-2
1.10961E0,-4.52880E-2
1.11108E0,-4.47998E-2
1.11022E0,-4.52880E-2
1.11096E0,-4.62646E-2
1.11035E0,-4.52880E-2
1.11035E0,-4.56543E-2
1.10986E0,-4.55322E-2
1.10998E0,-4.67529E-2
1.10949E0,-4.57763E-2
1.10961E0,-4.58984E-2
1.10913E0,-4.69970E-2
1.11022E0,-4.61425E-2
1.10925E0,-4.58984E-2
1.10900E0,-4.6875E-2
1.10986E0,-4.51660E-2
1.10839E0,-4.71191E-2
1.10864E0,-4.58984E-2
1.10949E0,-4.62646E-2
1.10900E0,-4.60205E-2
1.10839E0,-4.73632E-2
1.10949E0,-4.74853E-2
1.10961E0,-4.66308E-2
1.10949E0,-4.60205E-2
1.10961E0,-4.56543E-2
1.11010E0,-4.56543E-2
1.11071E0,-4.47998E-2
1.11035E0,-4.49218E-2
1.10974E0,-4.65087E-2
1.10949E0,-4.56543E-2
1.10925E0,-4.62646E-2
1.10974E0,-4.73632E-2
1.10986E0,-4.54101E-2
1.11193E0,-4.57763E-2
1.11132E0,-4.50439E-2
1.11059E0,-4.52880E-2
1.10961E0,-4.55322E-2
1.11145E0,-4.62646E-2
1.10876E0,-4.54101E-2
1.11132E0,-4.63867E-2
1.10986E0,-4.54101E-2
1.11071E0,-4.50439E-2
1.10937E0,-4.54711E-2
1.10907E0,-4.55932E-2
1.10937E0,-4.43725E-2
1.10888E0,-4.53491E-2
1.10992E0,-4.41894E-2
1.10882E0,-4.51049E-2
1.10821E0,-4.52880E-2
1.10925E0,-4.62036E-2
1.10900E0,-4.60205E-2
1.10705E0,-4.73632E-2
1.10791E0,-4.66918E-2
1.10778E0,-4.75463E-2
1.10852E0,-4.82177E-2
1.10876E0,-4.62646E-2
1.10827E0,-4.57153E-2
1.10766E0,-4.49829E-2
1.10876E0,-4.59594E-2
1.10827E0,-4.68139E-2
1.10955E0,-4.71191E-2
1.10839E0,-4.57153E-2
1.10723E0,-4.68139E-2
1.10687E0,-4.69970E-2
1.10656E0,-4.63256E-2
1.10876E0,-4.82177E-2
1.10681E0,-4.79126E-2
1.10742E0,-4.74243E-2
1.10662E0,-4.84619E-2
1.10882E0,-4.94384E-2
1.10589E0,-4.95605E-2
1.10693E0,-4.93774E-2
1.10699E0,-4.98046E-2
1.10687E0,-4.99877E-2
1.10754E0,-4.90722E-2
1.10553E0,-5.02929E-2
1.10784E0,-4.87670E-2
1.10418E0,-5.00488E-2
1.10595E0,-5.20629E-2
1.10717E0,-4.94995E-2
1.10449E0,-4.98046E-2
1.10571E0,-4.88891E-2
1.10583E0,-4.88281E-2
1.10437E0,-5.23071E-2
1.1073E0,-5.00488E-2
1.10522E0,-4.88281E-2
1.10473E0,-4.90722E-2
1.10626E0,-4.87060E-2
1.10553E0,-4.99877E-2
1.10516E0,-4.88891E-2
1.10565E0,-4.74853E-2
1.10455E0,-4.79126E-2
1.10522E0,-4.89502E-2
1.10510E0,-4.93164E-2
1.10437E0,-5.06591E-2
1.10522E0,-5.11474E-2
1.10571E0,-5.06591E-2
1.10656E0,-4.78515E-2
1.10607E0,-5.07812E-2
1.10607E0,-4.89502E-2
1.10522E0,-4.94384E-2
1.10644E0,-5.06591E-2
1.10376E0,-5.10253E-2
1.10461E0,-5.13916E-2
1.10400E0,-5.15136E-2
1.10473E0,-5.04150E-2
1.10376E0,-5.07812E-2
1.10449E0,-5.13916E-2
1.10351E0,-5.11474E-2
1.10412E0,-5.12695E-2
1.10449E0,-5.09033E-2
1.10278E0,-5.17578E-2
1.10339E0,-5.20019E-2
1.10449E0,-5.15136E-2
1.10229E0,-5.12695E-2
1.10192E0,-5.17578E-2
1.10314E0,-5.20019E-2
END
BEGIN
3.07448E-5,-5.64418E-5
-2.80123E-5,1.85146E-5
-3.11508E-5,4.73000E-5
-1.34483E-6,1.89114E-5
-4.34257E-5,-1.828E-5
-7.87526E-6,-2.13738E-5
-7.52508E-6,-5.54919E-5
-4.43458E-5,-3.05324E-5
5.04031E-5,0.59306E-5
-4.84958E-5,-4.03747E-5
-1.73635E-5,-2.88002E-5
-3.58186E-6,-1.73114E-5
2.08690E-5,-2.77254E-5
2.12881E-5,0.17639E-5
-3.56808E-5,-9.38773E-6
-2.59522E-5,-1.38394E-6
9.67979E-5,-5.42402E-5
-6.30691E-5,-2.61440E-5
0.76517E-5,5.28581E-5
-4.10340E-6,-1.24070E-5
-6.26780E-6,-3.47755E-6
-2.36239E-5,0.84601E-5
3.55243E-5,5.13419E-5
-1.52634E-5,0.33387E-5
-2.06306E-5,2.40318E-5
-5.41657E-6,-3.78675E-5
3.02419E-5,1.03078E-5
-2.40095E-6,-2.81203E-5
-3.15159E-6,3.14358E-5
-2.39573E-5,-2.51643E-5
-4.61796E-6,-3.69176E-6
-6.19515E-5,-2.69822E-5
-1.37253E-6,7.51577E-6
1.11199E-5,0.08847E-6
-2.69208E-5,3.16370E-5
2.54167E-5,0.35949E-5
2.65687E-5,3.19425E-5
9.92603E-6,0.47311E-6
3.34791E-5,4.22932E-5
-4.17903E-5,-4.22820E-5
4.77209E-5,1.86786E-5
-1.13574E-5,-1.42818E-5
-3.81004E-6,-1.82660E-5
-3.17618E-5,2.10385E-5
-9.69227E-6,6.64871E-6
-4.85610E-5,-4.71249E-6
-1.26864E-5,1.08270E-5
-4.41595E-5,1.45249E-5
4.28929E-5,1.66539E-5
2.49240E-5,2.50842E-5
-1.72089E-5,2.00010E-5
6.13294E-5,-3.7238E-5
6.49169E-5,4.49158E-5
0.85737E-5,-4.78550E-5
5.72484E-5,0.56773E-5
2.08150E-5,-3.26242E-6
5.27650E-5,2.11112E-5
-6.32740E-6,-3.08360E-5
1.69742E-5,2.11745E-5
9.04761E-5,-1.88387E-5
5.38062E-5,0.08810E-5
2.10795E-5,-3.94787E-5
4.56273E-5,1.93882E-5
-7.05244E-6,1.51712E-5
5.63487E-5,-3.77185E-6
-3.27527E-5,-1.98520E-5
6.47902E-5,-2.32309E-5
-3.09422E-5,2.61869E-5
2.42060E-5,0.27259E-5
3.32910E-5,1.33831E-5
0.04079E-5,3.57460E-5
1.58548E-5,0.87013E-5
5.55198E-5,0.48000E-5
-9.94838E-6,-6.17653E-6
1.04541E-6,1.32028E-5
6.87502E-5,3.27751E-5
2.60826E-5,2.43336E-5
5.99920E-5,0.54128E-5
3.23541E-5,1.90101E-5
3.64091E-5,0.23059E-5
3.15364E-5,-4.76427E-5
0.25453E-5,-2.04118E-5
3.35387E-5,1.87456E-5
-1.12820E-5,3.41981E-5
2.21263E-5,-4.48096E-5
3.19331E-5,1.35675E-5
4.66406E-5,-9.16421E-7
-8.95001E-6,-1.85854E-5
-2.58907E-5,-4.04380E-6
6.41904E-5,-1.71288E-5
-2.76975E-5,0.49434E-5
6.64666E-5,0.94771E-5
6.11655E-5,1.07325E-5
-1.24042E-5,7.85570E-6
5.33089E-5,2.62782E-5
2.56355E-5,0.46361E-5
-6.15268E-5,-7.48187E-5
-2.08616E-5,-4.96879E-5
4.68455E-5,0.40344E-5
0.81993E-5,-2.78148E-5
6.31623E-5,-9.17911E-6
1.00731E-5,2.61403E-5
4.14177E-5,-3.19033E-5
4.74154E-5,-1.30124E-5
7.11716E-6,0.82096E-6
3.95476E-5,-8.05035E-6
1.90846E-5,-3.14638E-5
2.47322E-5,-2.14632E-5
6.16982E-5,-2.02655E-6
-3.90633E-5,-6.13108E-5
7.17639E-5,2.74851E-5
0.05513E-5,3.26298E-5
4.76129E-5,-1.32247E-6
-8.03396E-5,2.01091E-5
2.47787E-5,-2.78707E-5
3.99239E-5,0.45113E-5
2.87555E-5,-1.23400E-5
1.85445E-5,2.98954E-5
3.19965E-5,-3.87877E-5
2.37580E-5,-2.71853E-5
4.78029E-5,-3.12067E-5
-2.36760E-5,1.66241E-5
-1.67265E-6,-2.72132E-5
2.54064E-5,4.35262E-5
-2.60770E-8,-5.46872E-5
1.37016E-5,3.87802E-5
5.68404E-5,-3.95998E-6
6.15231E-6,7.19446E-6
5.09731E-5,-3.03350E-5
-3.85195E-6,-2.02860E-5
4.39696E-5,-3.99425E-5
-1.69239E-5,4.21330E-5
4.54820E-5,-2.28695E-5
3.58782E-5,1.71139E-5
7.64355E-5,-1.24275E-5
1.75610E-5,-4.59700E-5
-6.39632E-6,-1.35917E-5
-1.84727E-5,1.01365E-5
5.82933E-5,3.09124E-5
2.41808E-5,1.18576E-5
4.12426E-5,-3.07261E-5
-1.74483E-5,1.27814E-5
6.31883E-5,0.18999E-5
1.43945E-5,-8.65105E-6
2.43336E-5,6.37546E-5
2.01091E-5,3.54051E-5
1.55009E-5,-5.37261E-5
4.67710E-5,-6.70552E-8
2.22418E-5,-1.50799E-5
4.67971E-5,-8.12932E-5
-2.22623E-5,-7.48783E-5
3.37380E-5,-2.87964E-6
4.34443E-5,0.62584E-5
-1.51619E-6,-1.52587E-5
4.29153E-5,4.85479E-5
-9.87388E-6,-1.90772E-5
-1.01253E-5,-4.36455E-5
3.07075E-5,-1.51842E-5
4.84436E-5,-5.15282E-5
-3.63774E-5,-1.32843E-5
0.82720E-5,1.94273E-5
-7.92741E-6,-1.09057E-5
6.13518E-5,-7.72997E-6
1.16825E-5,-4.18499E-5
0.51595E-5,-4.28333E-5
4.77805E-5,-4.43607E-5
3.17189E-5,-2.09510E-5
1.57151E-5,-1.37416E-5
1.86879E-5,-1.49682E-5
3.43453E-5,-2.21170E-5
0.79069E-6,-1.05761E-5
4.88944E-5,-1.03600E-5
2.42553E-5,-5.86472E-5
-6.74836E-6,2.56858E-5
3.21883E-5,-1.07847E-5
5.57526E-5,3.81618E-5
2.38716E-5,-4.53181E-5
4.90211E-5,0.66049E-5
4.62681E-5,-1.74827E-5
-1.28522E-5,-2.53543E-5
-3.09720E-5,-5.28395E-5
-8.54209E-6,-3.43509E-5
1.91852E-5,4.43160E-5
5.21615E-5,-3.23355E-5
0.10132E-5,1.93100E-5
2.01538E-5,-3.14004E-5
2.97278E-5,3.19927E-5
-1.82353E-5,-8.87736E-6
-2.73692E-6,-9.76491E-7
2.09314E-6,-2.16090E-6
-1.48536E-5,-3.01189E-6
-3.54461E-5,-6.90296E-6
-2.85953E-5,-5.04925E-5
4.09409E-5,4.12762E-5
-2.01165E-6,3.73646E-5
0.18291E-5,3.69027E-5
2.44788E-5,2.82973E-5
3.42298E-5,-2.20090E-5
5.28544E-5,1.96173E-5
-1.62869E-5,-2.28583E-5
5.39310E-5,-4.70168E-5
END
BEGIN
2.24970E-5,3.62359E-5
2.16327E-5,-1.54823E-5
1.59144E-5,0.50570E-5
0.86650E-5,-5.59352E-5
2.12043E-5,-6.18025E-5
0.50142E-5,-6.94245E-5
-3.08975E-5,-4.58732E-5
2.57920E-5,-1.18631E-5
1.14776E-5,4.65102E-6
-1.14692E-5,7.39656E-6
4.41409E-5,-2.11224E-5
-8.76747E-6,2.15545E-5
0.14565E-5,-2.72523E-5
-1.18650E-5,-1.19786E-5
1.50986E-5,-3.09087E-5
0.97602E-5,1.66576E-5
0.04433E-5,-3.84151E-5
-3.29203E-5,0.26933E-5
0.92461E-5,-6.22123E-5
-1.50613E-5,-3.40603E-5
3.14265E-5,1.35265E-5
-3.40193E-5,4.35449E-5
1.45426E-5,-8.17235E-6
5.07980E-5,3.52412E-5
-1.78050E-5,-8.13603E-6
7.60331E-6,1.23586E-5
2.28472E-5,-1.98446E-5
0.00633E-5,-3.55429E-5
-3.90969E-6,-5.22006E-7
-4.17400E-5,0.06593E-5
-7.37048E-6,-5.09843E-5
-2.19885E-6,-1.16969E-5
-1.62087E-5,-6.62170E-5
-1.07977E-5,3.63700E-5
-2.43429E-5,0.19483E-5
1.64574E-5,-3.05045E-5
0.22389E-5,5.22341E-5
-1.78543E-5,0.77383E-5
2.03168E-6,1.33425E-5
1.76932E-5,-4.11290E-5
0.64782E-5,-7.21290E-5
-2.66823E-5,0.94305E-5
5.21075E-6,1.22692E-5
1.84159E-5,4.34238E-5
1.44997E-5,-2.35661E-5
1.81524E-5,-6.86477E-6
2.31228E-5,-3.09571E-5
1.35861E-5,0.74412E-6
3.02847E-5,-2.66479E-5
3.85083E-5,2.75708E-5
1.84942E-5,4.35486E-5
-2.33780E-5,-1.73877E-5
4.50145E-5,1.69891E-5
3.22908E-5,-5.71645E-6
-7.72066E-7,2.11708E-5
0.35204E-5,7.23414E-5
0.78957E-5,-2.92165E-5
2.69785E-5,0.46091E-5
5.74905E-5,0.25034E-5
2.48476E-5,4.46513E-5
3.94750E-5,-4.61936E-6
5.49070E-5,2.31750E-5
-6.77071E-6,-3.93576E-5
2.55033E-5,-7.51018E-5
2.82740E-5,-1.94702E-5
-2.31759E-5,-1.08033E-6
-6.74277E-6,4.27966E-6
3.27788E-5,4.08850E-5
5.38565E-5,2.39498E-5
0.63609E-5,-4.39491E-5
4.01865E-5,-3.24528E-5
3.30749E-5,-1.33644E-5
4.96581E-5,2.97017E-5
5.10774E-5,-2.23126E-5
2.02171E-5,-4.19132E-5
1.83591E-5,-1.13211E-5
-1.49197E-6,-2.46819E-5
-9.21078E-6,1.03642E-5
5.01871E-5,-6.58705E-5
1.84420E-5,3.31178E-5
3.24118E-5,-2.13310E-5
-3.42447E-6,-1.26184E-5
2.72207E-5,0.09369E-5
1.25989E-5,-6.40340E-5
-2.12527E-6,-3.54908E-5
0.86091E-5,-3.18009E-5
-1.98837E-5,1.09747E-5
2.95247E-5,-1.41803E-5
2.16774E-5,-3.55020E-5
1.85165E-5,-2.22865E-5
3.1095E-5,-2.35363E-5
4.30718E-5,-2.34022E-5
-1.81794E-6,2.53710E-5
4.55193E-5,-4.06242E-5
5.87850E-5,1.61826E-5
0.42002E-5,-2.93534E-5
3.72231E-5,-5.56558E-6
-1.45565E-5,2.04369E-5
1.89933E-5,-1.74492E-5
4.74415E-5,-3.47420E-5
2.46856E-5,0.66105E-5
3.45241E-6,-9.02917E-6
-2.84239E-6,-4.34070E-5
5.96121E-5,-3.85940E-6
-1.04531E-5,-7.30827E-5
5.93997E-5,-1.23120E-5
3.17059E-5,-4.39584E-5
4.68529E-5,1.05500E-5
5.55999E-5,-7.23451E-6
-1.70655E-5,-7.74860E-6
1.04093E-5,-1.29984E-5
1.96173E-5,-4.55491E-5
0.79944E-5,-8.42884E-5
0.84787E-5,6.45592E-5
-2.47582E-5,-5.15207E-5
0.91902E-5,-3.44812E-5
1.53295E-5,1.18371E-5
2.02097E-5,1.73114E-5
2.94763E-5,0.24102E-5
3.59527E-5,-8.14348E-6
1.53482E-5,1.84662E-5
4.02070E-5,-3.61725E-5
0.00223E-5,3.51481E-5
4.42974E-5,1.01737E-5
4.14177E-5,-3.94880E-5
0.30659E-5,2.98656E-5
1.2137E-5,-2.86754E-6
0.73537E-5,-5.21168E-5
-9.26107E-6,-3.26782E-5
5.24334E-6,-1.15931E-5
0.69066E-5,-4.65139E-5
2.41994E-5,2.51978E-5
4.58732E-5,-5.78686E-5
4.03262E-5,0.13932E-5
-7.74860E-6,-3.67872E-5
-1.37910E-5,-3.94508E-5
-5.47058E-6,-2.08262E-5
4.03337E-5,0.76852E-5
5.06937E-5,-1.19209E-5
1.31558E-5,-2.48681E-5
3.27080E-5,-4.29712E-5
1.20885E-5,-4.86522E-5
-5.16995E-5,-3.05473E-5
1.46133E-5,-1.07279E-5
2.34339E-5,0.39115E-5
-4.50946E-6,-1.26753E-5
-3.15122E-5,-1.13397E-5
1.92578E-5,-1.24406E-5
-4.13805E-5,1.98483E-5
-2.73529E-5,2.24206E-5
2.55797E-5,-2.84463E-5
2.0165E-5,-2.45869E-6
0.55506E-5,2.17370E-5
8.15689E-5,1.29118E-5
-1.75554E-5,-1.19209E-6
-1.57952E-6,-4.09111E-5
0.00223E-5,-1.61025E-5
-3.52226E-5,0.74803E-5
0.18924E-5,1.94590E-5
1.63987E-5,-4.09893E-5
-1.06869E-6,-4.54532E-6
1.75433E-5,-9.07573E-6
4.93452E-5,0.38482E-5
1.36885E-5,2.63005E-6
-6.12437E-6,-2.12974E-5
7.18385E-5,0.20265E-5
-6.95139E-6,-8.37817E-5
3.40044E-5,0.70557E-5
2.15265E-5,-2.67718E-5
6.42538E-5,-6.72191E-5
1.06347E-5,4.15928E-6
3.79644E-5,-9.69320E-6
-1.57579E-6,-5.70192E-5
2.36369E-5,-1.28354E-5
2.51010E-5,1.72667E-5
-1.28075E-5,-1.85146E-5
-4.04473E-6,1.24787E-5
-3.41665E-5,2.61925E-5
0.52414E-5,2.99252E-5
2.05934E-5,1.57915E-5
3.95216E-5,1.57356E-5
2.74106E-5,0.02291E-5
3.34978E-5,5.55142E-5
4.47258E-5,2.53468E-5
-2.22772E-5,3.27862E-5
-3.88957E-5,-6.72414E-6
4.81791E-5,-1.79186E-5
5.71981E-5,0.75623E-5
2.07442E-5,0.24288E-5
4.67002E-5,2.57939E-5
3.26521E-5,0.60126E-5
0.26412E-5,-3.72007E-5
6.08153E-5,-5.18560E-6
-1.75014E-5,3.44701E-5
0.12945E-5,-2.83513E-5
-4.37200E-5,-1.42864E-5
2.71089E-5,-4.12389E-5
-1.16042E-6,-1.27377E-5
1.86301E-5,1.41933E-5
2.34842E-5,2.28136E-5
1.06543E-5,-5.14462E-6
END
BEGIN
0.08789E-1,1.06298E0
-1.44043E-2,1.06298E0
-3.60107E-2,1.06103E0
-5.89599E-2,1.06189E0
-7.97119E-2,1.05896E0
-1.02050E-1,1.05847E0
-1.23535E-1,1.05615E0
-1.46484E-1,1.05188E0
-1.69555E-1,1.04992E0
-1.89697E-1,1.04870E0
-2.13012E-1,1.04504E0
-2.34130E-1,1.04003E0
-2.56591E-1,1.03625E0
-2.76123E-1,1.02783E0
-2.99316E-1,1.02429E0
-3.22021E-1,1.01953E0
-3.43139E-1,1.01129E0
-3.63891E-1,1.00531E0
-3.85437E-1,9.96765E-1
-4.05151E-1,9.89318E-1
-4.26757E-1,9.79797E-1
-4.46411E-1,9.72106E-1
-4.67834E-1,9.61731E-1
-4.87426E-1,9.52697E-1
-5.08056E-1,9.42382E-1
-5.29907E-1,9.31274E-1
-5.48156E-1,9.20959E-1
-5.67016E-1,9.07592E-1
-5.89233E-1,8.96606E-1
-6.05011E-1,8.84460E-1
-6.24481E-1,8.71276E-1
-6.42974E-1,8.57849E-1
-6.63909E-1,8.42376E-1
-6.80877E-1,8.29345E-1
-6.98028E-1,8.15460E-1
-7.16705E-1,7.99835E-1
-7.34710E-1,7.83844E-1
-7.49572E-1,7.67761E-1
-7.65838E-1,7.51068E-1
-7.82562E-1,7.34954E-1
-7.97668E-1,7.18231E-1
-8.12225E-1,7.01263E-1
-8.28033E-1,6.82647E-1
-8.42681E-1,6.65679E-1
-8.5672E-1,6.47003E-1
-8.69384E-1,6.27655E-1
-8.83697E-1,6.09710E-1
-8.94897E-1,5.89355E-1
-9.08813E-1,5.70037E-1
-9.21752E-1,5.49621E-1
-9.31274E-1,5.30883E-1
-9.42688E-1,5.12023E-1
-9.53430E-1,4.87915E-1
-9.63806E-1,4.69238E-1
-9.73877E-1,4.47814E-1
-9.82269E-1,4.27520E-1
-9.91516E-1,4.05456E-1
-9.98474E-1,3.83667E-1
-1.00659E0,3.61938E-1
-1.01355E0,3.40026E-1
-1.02069E0,3.18298E-1
-1.02697E0,2.94616E-1
-1.03381E0,2.71484E-1
-1.03936E0,2.50427E-1
-1.04370E0,2.26745E-1
-1.0495E0,2.04650E-1
-1.05090E0,1.80481E-1
-1.05456E0,1.59729E-1
-1.05883E0,1.37573E-1
-1.06195E0,1.13830E-1
-1.06323E0,0.88806E-1
-1.06646E0,0.65918E-1
-1.06726E0,0.42175E-1
-1.06817E0,0.17944E-1
-1.06628E0,-6.53076E-3
-1.06628E0,-2.85644E-2
-1.06506E0,-5.24292E-2
-1.06427E0,-7.36084E-2
-1.06170E0,-9.87548E-2
-1.05963E0,-1.19628E-1
-1.05688E0,-1.44836E-1
-1.05328E0,-1.67602E-1
-1.04840E0,-1.90918E-1
-1.04522E0,-2.14172E-1
-1.03924E0,-2.37365E-1
-1.03320E0,-2.59765E-1
-1.02685E0,-2.83569E-1
-1.01831E0,-3.05175E-1
-1.01306E0,-3.27636E-1
-1.00231E0,-3.50097E-1
-9.95483E-1,-3.72314E-1
-9.86938E-1,-3.93310E-1
-9.77294E-1,-4.15283E-1
-9.6875E-1,-4.36645E-1
-9.56665E-1,-4.58129E-1
-9.47509E-1,-4.79980E-1
-9.35058E-1,-5.00122E-1
-9.23339E-1,-5.21118E-1
-9.12841E-1,-5.41381E-1
-8.99536E-1,-5.60546E-1
-8.86962E-1,-5.81665E-1
-8.73535E-1,-5.98877E-1
-8.59130E-1,-6.19018E-1
-8.4375E-1,-6.36474E-1
-8.28002E-1,-6.53198E-1
-8.15429E-1,-6.72851E-1
-7.97729E-1,-6.90673E-1
-7.84423E-1,-7.08862E-1
-7.65869E-1,-7.25830E-1
-7.49633E-1,-7.41699E-1
-7.32543E-1,-7.59765E-1
-7.16796E-1,-7.73193E-1
-6.97876E-1,-7.88940E-1
-6.79687E-1,-8.04931E-1
-6.61377E-1,-8.17382E-1
-6.42211E-1,-8.34106E-1
-6.24755E-1,-8.46801E-1
-6.05102E-1,-8.59497E-1
-5.83496E-1,-8.70971E-1
-5.64453E-1,-8.86596E-1
-5.44677E-1,-8.96118E-1
-5.26001E-1,-9.08569E-1
-5.05127E-1,-9.20288E-1
-4.84375E-1,-9.30175E-1
-4.64843E-1,-9.39209E-1
-4.4104E-1,-9.46655E-1
-4.19921E-1,-9.60205E-1
-3.99414E-1,-9.65820E-1
-3.76220E-1,-9.74365E-1
-3.56689E-1,-9.81933E-1
-3.35327E-1,-9.87670E-1
-3.11157E-1,-9.93164E-1
-2.88208E-1,-1.00122E0
-2.68554E-1,-1.00683E0
-2.45483E-1,-1.01208E0
-2.23388E-1,-1.01525E0
-2.02270E-1,-1.01904E0
-1.78710E-1,-1.02380E0
-1.55395E-1,-1.02758E0
-1.33667E-1,-1.03002E0
-1.08642E-1,-1.03210E0
-8.83789E-2,-1.03491E0
-6.73828E-2,-1.0354E0
-4.27246E-2,-1.03613E0
-1.90429E-2,-1.03552E0
0E0,-1.03686E0
0.25390E-1,-1.03576E0
0.45898E-1,-1.03466E0
0.69091E-1,-1.03173E0
0.88989E-1,-1.03234E0
1.12609E-1,-1.02880E0
1.35437E-1,-1.02630E0
1.54907E-1,-1.02294E0
1.78894E-1,-1.01849E0
2.00683E-1,-1.01538E0
2.24121E-1,-1.00933E0
2.44628E-1,-1.00262E0
2.66418E-1,-9.99572E-1
2.86804E-1,-9.92492E-1
3.08288E-1,-9.86511E-1
3.30078E-1,-9.79126E-1
3.48938E-1,-9.68078E-1
3.71521E-1,-9.61486E-1
3.90747E-1,-9.53491E-1
4.09851E-1,-9.45129E-1
4.32312E-1,-9.35058E-1
4.51232E-1,-9.25293E-1
4.72839E-1,-9.14489E-1
4.89563E-1,-9.03625E-1
5.10253E-1,-8.93066E-1
5.28259E-1,-8.82995E-1
5.48645E-1,-8.71032E-1
5.67688E-1,-8.58764E-1
5.85449E-1,-8.46801E-1
6.03637E-1,-8.32580E-1
6.20056E-1,-8.21350E-1
6.38000E-1,-8.05664E-1
6.55151E-1,-7.93151E-1
6.70471E-1,-7.7948E-1
6.86401E-1,-7.63855E-1
7.03552E-1,-7.49572E-1
7.18139E-1,-7.35534E-1
7.33703E-1,-7.19604E-1
7.48107E-1,-7.02880E-1
7.63305E-1,-6.87316E-1
7.76428E-1,-6.71875E-1
7.89794E-1,-6.54113E-1
8.04565E-1,-6.38488E-1
8.18969E-1,-6.20788E-1
8.29834E-1,-6.03576E-1
8.43322E-1,-5.86486E-1
8.54187E-1,-5.68542E-1
8.67370E-1,-5.52429E-1
8.77380E-1,-5.32959E-1
8.88977E-1,-5.14221E-1
9.00451E-1,-4.95300E-1
9.08569E-1,-4.75891E-1
9.19067E-1,-4.58679E-1
9.29748E-1,-4.39636E-1
9.38293E-1,-4.19738E-1
9.47448E-1,-4.00634E-1
END

