CITIFILE A.01.00
#NA VERSION HP8753E.07.12
NAME DATA
VAR FREQ MAG 201
DATA S[1,1] RI
DATA S[2,1] RI
DATA S[1,2] RI
DATA S[2,2] RI
SEG_LIST_BEGIN
SEG 5675000000 5925000000 201
SEG_LIST_END
BEGIN
1.10852E0,-4.10156E-2
1.10705E0,-3.99169E-2
1.10839E0,-4.27246E-2
1.10888E0,-4.16259E-2
1.10900E0,-3.89404E-2
1.10900E0,-3.97949E-2
1.10791E0,-4.10156E-2
1.10754E0,-4.17480E-2
1.10876E0,-4.06494E-2
1.10888E0,-4.12597E-2
1.10888E0,-4.07714E-2
1.11010E0,-4.39453E-2
1.10827E0,-4.07714E-2
1.10852E0,-4.27246E-2
1.10986E0,-4.21142E-2
1.10949E0,-4.08935E-2
1.10961E0,-4.07714E-2
1.10803E0,-4.24804E-2
1.11071E0,-4.24804E-2
1.10827E0,-4.23584E-2
1.10864E0,-4.16259E-2
1.11022E0,-4.27246E-2
1.10974E0,-4.17480E-2
1.10986E0,-4.07714E-2
1.10961E0,-4.33349E-2
1.10900E0,-4.37011E-2
1.11047E0,-4.28466E-2
1.11096E0,-4.21142E-2
1.10925E0,-4.29687E-2
1.11096E0,-4.27246E-2
1.10949E0,-4.18701E-2
1.10943E0,-4.35180E-2
1.10968E0,-4.37011E-2
1.11004E0,-4.26025E-2
1.10949E0,-4.44946E-2
1.11041E0,-4.36401E-2
1.10980E0,-4.26025E-2
1.11102E0,-4.16870E-2
1.11096E0,-4.29077E-2
1.11138E0,-4.26635E-2
1.11108E0,-4.38842E-2
1.11261E0,-4.33349E-2
1.11218E0,-4.3396E-2
1.11370E0,-4.11987E-2
1.11273E0,-4.29077E-2
1.11334E0,-4.30297E-2
1.11322E0,-4.29687E-2
1.11242E0,-4.38232E-2
1.11346E0,-4.31518E-2
1.11315E0,-4.34570E-2
1.11254E0,-4.24194E-2
1.11377E0,-4.40673E-2
1.11242E0,-4.27246E-2
1.11181E0,-4.42504E-2
1.11261E0,-4.18701E-2
1.11285E0,-4.3396E-2
1.11261E0,-4.35791E-2
1.11279E0,-4.17480E-2
1.11322E0,-4.21142E-2
1.11236E0,-4.28466E-2
1.11297E0,-4.26635E-2
1.11163E0,-4.21752E-2
1.11212E0,-4.09545E-2
1.11230E0,-4.27246E-2
1.11261E0,-4.16259E-2
1.11261E0,-4.26025E-2
1.11169E0,-4.13208E-2
1.11254E0,-4.10766E-2
1.11181E0,-4.18090E-2
1.11169E0,-4.15039E-2
1.11309E0,-4.09545E-2
1.11285E0,-4.11987E-2
1.11114E0,-4.19311E-2
1.11187E0,-4.21142E-2
1.11175E0,-4.10766E-2
1.11230E0,-4.07104E-2
1.11212E0,-4.07714E-2
1.11102E0,-4.10156E-2
1.11230E0,-4.05883E-2
1.11126E0,-4.13208E-2
1.11041E0,-4.20532E-2
1.11029E0,-4.18701E-2
1.11090E0,-4.15649E-2
1.11059E0,-4.21142E-2
1.11126E0,-4.26025E-2
1.10949E0,-4.26025E-2
1.11071E0,-4.24804E-2
1.10998E0,-4.19921E-2
1.11071E0,-4.37011E-2
1.10949E0,-4.29687E-2
1.10961E0,-4.35791E-2
1.10961E0,-4.32128E-2
1.10949E0,-4.44335E-2
1.10815E0,-4.27246E-2
1.10937E0,-4.32128E-2
1.10864E0,-4.41894E-2
1.10937E0,-4.33349E-2
1.10827E0,-4.24804E-2
1.10839E0,-4.43115E-2
1.10900E0,-4.23584E-2
1.10815E0,-4.40673E-2
1.10766E0,-4.32128E-2
1.10876E0,-4.34570E-2
1.10803E0,-4.33349E-2
1.10742E0,-4.45556E-2
1.10900E0,-4.50439E-2
1.10925E0,-4.33349E-2
1.10888E0,-4.37011E-2
1.10937E0,-4.28466E-2
1.10925E0,-4.26025E-2
1.11035E0,-4.19921E-2
1.10900E0,-4.27246E-2
1.10913E0,-4.33349E-2
1.10876E0,-4.27246E-2
1.10925E0,-4.33349E-2
1.10949E0,-4.45556E-2
1.10937E0,-4.32128E-2
1.11193E0,-4.32128E-2
1.11096E0,-4.28466E-2
1.11010E0,-4.24804E-2
1.10949E0,-4.26025E-2
1.11132E0,-4.32128E-2
1.10791E0,-4.26025E-2
1.11035E0,-4.28466E-2
1.10937E0,-4.30908E-2
1.10998E0,-4.27246E-2
1.10815E0,-4.22363E-2
1.10888E0,-4.34570E-2
1.10943E0,-4.15649E-2
1.10784E0,-4.22363E-2
1.10937E0,-4.13818E-2
1.10864E0,-4.19311E-2
1.10839E0,-4.21752E-2
1.10876E0,-4.26635E-2
1.10815E0,-4.33349E-2
1.10754E0,-4.44946E-2
1.10809E0,-4.3396E-2
1.10748E0,-4.42504E-2
1.10827E0,-4.46167E-2
1.10876E0,-4.29687E-2
1.10742E0,-4.21752E-2
1.10681E0,-4.37011E-2
1.10827E0,-4.3396E-2
1.10809E0,-4.35180E-2
1.10827E0,-4.47998E-2
1.10821E0,-4.27856E-2
1.10784E0,-4.51660E-2
1.10479E0,-4.46167E-2
1.10803E0,-4.38842E-2
1.10821E0,-4.47387E-2
1.10650E0,-4.55932E-2
1.10821E0,-4.49218E-2
1.10583E0,-4.62036E-2
1.10931E0,-4.66308E-2
1.10638E0,-4.60815E-2
1.10833E0,-4.82177E-2
1.10791E0,-4.80346E-2
1.10620E0,-4.79126E-2
1.10772E0,-4.54101E-2
1.10577E0,-4.62646E-2
1.10571E0,-4.82788E-2
1.10589E0,-4.67529E-2
1.10510E0,-4.87060E-2
1.10546E0,-4.71191E-2
1.10504E0,-4.75463E-2
1.10394E0,-4.71801E-2
1.10595E0,-4.70581E-2
1.10491E0,-4.69970E-2
1.10443E0,-4.86450E-2
1.10546E0,-4.62646E-2
1.10253E0,-4.54711E-2
1.10632E0,-4.68139E-2
1.10473E0,-4.79126E-2
1.10461E0,-4.65087E-2
1.10516E0,-4.55932E-2
1.10620E0,-4.56543E-2
1.10546E0,-4.60205E-2
1.10510E0,-4.54101E-2
1.10583E0,-4.83398E-2
1.10571E0,-4.72412E-2
1.10412E0,-4.57763E-2
1.10437E0,-4.52880E-2
1.10668E0,-4.71191E-2
1.10461E0,-4.62646E-2
1.10534E0,-4.67529E-2
1.10534E0,-4.71191E-2
1.10437E0,-4.78515E-2
1.10461E0,-4.77294E-2
1.10607E0,-4.93164E-2
1.10437E0,-4.88281E-2
1.10400E0,-4.83398E-2
1.10376E0,-4.88281E-2
1.10290E0,-4.84619E-2
1.10253E0,-4.78515E-2
1.10266E0,-4.72412E-2
1.10058E0,-4.78515E-2
1.10339E0,-4.91943E-2
1.10168E0,-4.91943E-2
1.10192E0,-4.82177E-2
1.10241E0,-4.87060E-2
1.10156E0,-4.91943E-2
END
BEGIN
1.26771E-5,-8.42288E-6
2.33165E-5,-8.94256E-6
-2.7325E-5,2.55089E-5
-1.69500E-5,0.67818E-5
0.08977E-5,-2.33668E-5
1.18464E-5,-6.83739E-5
-1.93268E-5,-4.87044E-5
-6.01187E-5,-2.45347E-5
5.64754E-5,-9.06363E-6
-2.88412E-5,-1.23456E-5
1.63521E-5,-2.72896E-5
-4.17232E-6,-3.56473E-5
1.1608E-5,-2.44360E-5
4.05497E-6,-1.11255E-5
-3.74130E-5,0.23879E-5
-2.73063E-5,-1.99265E-5
7.28741E-5,-3.56808E-5
-1.89207E-5,-3.98904E-5
2.02283E-5,1.77957E-5
-2.99066E-5,-1.39325E-5
-6.34975E-6,2.18711E-5
-2.62577E-5,-2.15880E-6
4.70578E-5,0.91791E-5
-9.28156E-6,2.65426E-6
-4.55603E-5,3.72342E-5
1.41756E-5,-4.01213E-6
4.15146E-5,0.60647E-5
3.03052E-5,-3.46899E-5
1.52252E-5,2.25603E-5
-3.02493E-5,-5.27724E-5
-3.42726E-6,-5.39757E-5
-8.74772E-5,-4.25539E-5
-6.94021E-6,-6.52857E-6
3.67825E-6,-3.97907E-6
-3.86703E-5,-1.08070E-5
1.50837E-5,-7.51130E-5
2.15191E-5,-9.19215E-7
-1.71158E-5,0.51250E-5
4.09875E-5,-1.97757E-5
-4.37218E-5,3.62321E-5
1.13155E-5,3.40640E-5
5.79748E-5,-2.77925E-5
-5.57676E-6,-1.99033E-5
-2.39685E-5,-8.69389E-6
-1.96881E-6,-3.84412E-5
-4.03411E-5,-3.70629E-5
0.36088E-5,2.18711E-5
-3.73926E-6,-2.27820E-5
4.14904E-5,-8.72276E-6
1.51842E-5,1.96937E-5
1.41784E-5,5.54472E-5
7.41146E-5,-6.72265E-5
1.05872E-5,1.13472E-5
2.80663E-5,-2.98898E-5
1.15353E-5,-2.81399E-5
1.35935E-5,8.12206E-6
6.40265E-5,3.32556E-5
2.20118E-5,-2.56532E-5
-3.14060E-5,-3.42968E-5
9.64440E-5,4.03150E-5
2.01128E-5,1.69444E-5
2.54088E-6,-2.86707E-6
2.98060E-5,4.14699E-5
2.20397E-6,-1.50143E-5
4.79668E-5,-1.47093E-5
-1.87493E-5,-6.27189E-5
6.06216E-5,-4.81121E-6
1.30804E-5,1.5934E-5
2.52611E-5,-8.45547E-6
8.67843E-5,-3.39373E-5
1.65849E-5,5.68516E-5
1.14617E-5,-1.97822E-5
6.14002E-5,-2.53953E-5
-6.46337E-6,-5.00641E-5
-2.33575E-6,-5.45717E-5
3.97451E-5,3.11695E-5
1.98464E-5,1.98185E-5
1.74334E-5,-4.08757E-6
2.23349E-5,1.61360E-5
2.42944E-5,-4.69740E-5
2.15480E-5,-1.22422E-5
2.88514E-5,-1.89635E-5
4.10825E-5,3.80761E-5
-3.96296E-5,1.71437E-5
1.32024E-5,-6.31325E-5
3.75658E-5,1.65104E-5
1.60876E-5,-1.63614E-5
0.10505E-5,-2.26777E-5
0.50012E-5,-1.90157E-5
6.03012E-5,-3.29054E-5
-4.02107E-5,-7.12275E-6
2.7854E-5,-3.72491E-5
3.22535E-5,1.39437E-5
0.00670E-5,2.65892E-5
2.81482E-5,-1.43814E-5
1.42604E-5,1.09970E-5
-9.35792E-6,-7.44313E-5
7.19493E-6,0.01350E-6
1.34035E-5,5.21838E-5
4.68045E-5,-7.00354E-5
4.02741E-5,1.23642E-5
2.27205E-5,-3.89367E-5
-1.02073E-6,-6.58705E-5
-1.30310E-5,-6.00367E-5
0.30044E-5,2.61906E-5
-4.75533E-6,-8.04290E-6
-5.20274E-5,0.33080E-5
5.87739E-5,-3.67723E-5
1.43088E-5,-1.92560E-5
-3.67164E-5,2.90982E-5
5.88297E-5,0.08381E-5
0.05140E-5,2.45608E-5
3.72715E-5,0.55283E-5
-6.63101E-5,-1.06543E-5
-3.95253E-6,-3.93800E-5
2.44826E-5,2.04294E-5
-4.08813E-5,-1.01365E-5
0.35278E-5,3.13073E-5
4.84585E-5,-3.42689E-5
5.52758E-5,2.19345E-5
2.16066E-5,-3.92980E-5
7.57724E-6,9.71928E-6
4.38019E-5,0.60051E-5
2.15899E-5,0.21811E-5
3.90708E-5,-4.21591E-5
-7.67409E-6,2.52146E-5
4.00021E-5,-4.40329E-6
-3.92943E-5,-3.28198E-5
4.41931E-5,-5.35771E-5
-2.34358E-5,-3.73050E-5
1.99060E-5,-8.56816E-7
4.95500E-5,0.48875E-5
3.46638E-5,0.14640E-5
3.77744E-6,4.75160E-6
5.93885E-5,-6.66827E-7
-6.28642E-6,-2.38530E-5
-3.43471E-6,-6.74352E-5
1.09877E-5,1.94553E-6
4.77209E-5,0.23953E-5
1.82241E-5,4.90844E-5
5.77829E-5,-3.93167E-5
4.43980E-5,4.11048E-5
3.07448E-5,-3.70033E-5
-1.26175E-5,-8.76374E-6
1.64732E-5,8.08239E-5
1.37500E-5,7.36489E-6
5.04106E-5,-6.79567E-5
2.61403E-5,-2.25044E-5
3.59118E-5,-1.17383E-5
-2.13012E-5,-9.92938E-5
1.14813E-5,-4.17977E-5
7.26431E-5,1.30832E-5
-3.05846E-5,6.22160E-5
3.25851E-5,0.89108E-5
3.95104E-5,-1.05723E-5
-1.10715E-5,-5.35026E-5
7.69794E-5,-4.74229E-5
2.59913E-5,-6.20149E-5
3.95700E-5,-3.23057E-5
-1.60634E-5,8.43033E-5
-1.04643E-5,-5.40446E-6
1.53202E-5,1.74809E-5
3.67742E-5,-2.27168E-5
1.91852E-5,1.10417E-5
-3.91528E-5,-2.62446E-5
3.93763E-5,0.83334E-5
3.97414E-5,-4.40478E-5
1.68606E-5,-3.18549E-5
-6.51739E-6,-3.98140E-6
5.17778E-5,-1.04755E-5
-3.01450E-5,-1.75610E-5
-1.24983E-5,-1.44355E-5
2.05002E-5,-2.24169E-5
1.828E-5,2.78279E-5
2.18637E-5,-3.50959E-5
5.7064E-5,2.96086E-5
1.79670E-5,-4.20175E-5
5.50933E-5,0.76927E-5
2.93217E-5,-7.58841E-6
2.49557E-5,-3.44365E-5
-3.93241E-5,-7.59363E-5
1.80192E-5,-2.86121E-5
-1.00918E-5,3.17711E-5
0.66272E-5,-3.27453E-5
2.35140E-5,-5.94630E-5
2.80998E-5,-5.39496E-5
-2.66246E-5,4.91589E-5
-4.22261E-5,-2.08914E-5
-6.77257E-6,-1.25356E-5
3.27266E-6,6.45685E-6
-3.32985E-5,0.49322E-5
-2.82079E-5,-2.71499E-5
1.46906E-5,4.02517E-6
4.48525E-5,3.92273E-5
2.60211E-5,-1.31055E-5
-2.45012E-5,1.20960E-5
-4.27626E-5,2.17780E-5
2.69971E-5,-1.35544E-5
3.13427E-5,-1.80099E-5
1.14264E-5,-8.12672E-6
3.49693E-5,-4.33921E-5
END
BEGIN
-3.34940E-5,1.32806E-5
2.44379E-5,-2.33762E-5
1.08070E-5,2.89548E-6
0.52079E-5,-3.46638E-5
1.82464E-5,-5.48996E-5
-2.36183E-6,-2.76528E-5
0.26878E-5,-2.21487E-5
1.57952E-5,-4.33959E-5
7.63358E-6,-1.07009E-6
-8.29622E-6,3.56137E-5
4.62122E-5,-4.41074E-5
-3.97628E-6,7.09528E-6
-6.91926E-6,0.65052E-6
1.60876E-5,1.12541E-5
0.04060E-5,-4.09819E-5
-2.97129E-5,-2.01873E-5
0.20302E-5,-4.46476E-5
-9.91672E-6,1.03460E-5
0.58114E-5,-5.89266E-5
0.53793E-5,-6.94245E-5
3.09236E-5,-1.03265E-5
-4.57949E-5,2.69040E-5
2.28472E-5,-1.48452E-5
2.00681E-5,2.19196E-5
2.44826E-5,-8.40984E-6
2.11745E-5,0.00689E-5
2.44192E-5,1.79968E-5
0.36731E-5,-3.57814E-5
1.16601E-5,3.25031E-5
-2.20444E-5,2.5291E-5
1.39288E-5,1.81775E-5
1.96490E-5,-6.10668E-6
-1.56480E-5,-4.12315E-5
2.54381E-5,3.39523E-5
-1.48434E-5,-1.88760E-5
1.05500E-5,-3.14749E-5
0.53755E-5,2.27904E-5
-5.71217E-5,2.93552E-5
2.58404E-5,3.86405E-5
2.39815E-5,-3.88082E-6
4.76669E-5,-5.49107E-5
-1.27237E-5,3.01376E-5
2.63229E-5,-3.98419E-5
1.3493E-5,7.10412E-5
1.31717E-5,-2.59000E-5
-5.10644E-6,1.71521E-5
1.34073E-5,-5.49275E-5
3.07727E-5,-1.33812E-5
6.45453E-6,-1.24680E-5
5.59054E-5,3.93763E-5
-5.49294E-6,4.79593E-5
-1.05388E-5,-2.28397E-5
4.98555E-5,2.02916E-5
2.04201E-5,-3.78955E-6
-1.79559E-6,-1.89691E-5
4.53777E-5,7.64541E-5
3.16426E-5,-4.71621E-6
1.99452E-5,3.45967E-5
6.45853E-5,-7.88644E-6
3.91975E-5,5.83753E-5
0.45020E-5,-4.17977E-5
2.54437E-5,2.44900E-5
-6.16186E-6,3.65520E-6
1.31949E-5,-3.50512E-5
2.18525E-5,-1.07148E-5
-1.27451E-5,1.81375E-5
0.40484E-5,2.06623E-5
7.80075E-5,4.08999E-5
5.07943E-5,-1.21146E-5
2.15061E-5,-2.91205E-5
2.80104E-5,-5.20683E-5
3.75267E-5,-2.82786E-5
5.84703E-5,-2.31228E-5
6.21564E-5,1.33626E-5
1.06655E-5,-4.52026E-5
7.28922E-6,-2.92412E-6
2.09454E-5,-7.24848E-6
1.03041E-5,1.46552E-5
2.27969E-5,-1.2693E-5
2.27727E-5,4.63351E-5
0.24884E-5,-4.63090E-5
2.05021E-5,-3.75229E-6
1.46022E-5,1.37426E-5
2.97240E-5,-4.74974E-5
-1.41970E-5,-5.88297E-5
-1.92262E-5,-3.07112E-5
2.01109E-5,1.39083E-5
4.12352E-5,-1.58846E-5
2.66861E-5,-2.39573E-5
3.94657E-5,-1.15893E-5
5.72856E-6,-9.37469E-6
3.45539E-5,-2.52854E-5
1.31167E-5,4.63612E-6
2.05710E-5,-3.37213E-5
4.97363E-5,-8.06525E-6
3.63625E-5,-5.82598E-5
5.17703E-5,0.20489E-5
0.20563E-5,-2.33445E-5
0.72941E-5,-2.42646E-5
4.04082E-5,-2.80886E-6
1.27852E-5,3.33115E-5
-2.24188E-5,-4.50834E-5
-1.07362E-5,-7.99223E-5
7.46473E-5,-3.62917E-5
2.51494E-5,-6.00554E-5
1.38673E-5,-5.99399E-6
2.19978E-5,-1.71102E-5
0.97472E-5,-2.50600E-5
2.83513E-5,-1.90623E-5
-4.47556E-5,1.35824E-5
2.96384E-5,1.56536E-5
-1.01849E-5,-4.28035E-5
2.31191E-5,-7.37607E-5
2.06604E-5,2.77645E-5
3.20002E-5,-2.17724E-5
1.67116E-5,-3.89218E-5
1.79372E-6,-4.96953E-6
-1.79745E-5,-1.59293E-5
-3.39783E-5,-2.73883E-5
-5.95580E-6,-3.68244E-6
1.79745E-5,-2.38940E-5
5.23030E-6,-7.77654E-7
8.16956E-6,9.37469E-6
1.18492E-5,2.57138E-6
0.63367E-5,-2.36015E-5
2.59243E-5,0.31963E-5
2.04145E-5,0.95013E-5
2.89604E-5,-3.62917E-5
-9.76771E-6,-2.32979E-5
3.56882E-6,1.44541E-5
5.16325E-5,3.04132E-5
2.14465E-5,2.03661E-5
2.83010E-5,-3.29129E-5
4.35151E-5,-3.86610E-5
-9.64850E-6,-7.89091E-5
-1.94460E-5,-4.79072E-5
3.99723E-5,-5.06788E-5
3.83183E-5,-1.17346E-5
3.37865E-5,-4.76092E-6
-1.68075E-5,0.85812E-5
0.68247E-5,-6.82845E-5
5.48549E-5,-4.62234E-5
-1.86711E-5,-6.68317E-5
-1.96322E-5,-2.45757E-5
-1.10473E-5,-6.23986E-8
2.48253E-5,-2.66004E-5
1.25989E-5,2.99550E-5
3.70852E-5,1.42231E-5
2.07833E-5,-6.88061E-6
1.87233E-5,2.69524E-5
1.72257E-5,-1.71400E-5
5.19752E-5,0.34123E-5
4.33577E-6,3.63262E-6
5.13270E-5,-3.47197E-6
-2.04294E-5,-3.03164E-5
-1.98893E-5,-1.89989E-5
5.72670E-6,-1.07241E-5
-1.13947E-5,1.40313E-5
1.25803E-5,-9.45478E-6
0.26859E-5,-4.15258E-5
2.77347E-5,-3.35387E-5
2.27130E-5,1.67898E-5
3.94582E-5,1.82874E-5
2.45776E-6,7.15162E-6
2.55554E-5,-3.84002E-5
3.17283E-5,-2.92547E-5
-1.37686E-5,-6.64517E-5
6.31921E-5,-9.87201E-7
-7.94976E-6,-8.71252E-6
1.24871E-5,-7.85365E-5
1.36531E-5,-1.09076E-5
9.10088E-6,2.26032E-6
-1.64695E-5,-4.04231E-5
1.71978E-5,0.19203E-5
-7.08503E-7,-1.86753E-6
-4.82425E-6,-5.00567E-5
1.15586E-5,4.14811E-6
-7.00466E-5,2.98693E-5
-6.90110E-6,-1.41635E-5
1.38208E-5,2.16588E-5
2.42665E-5,4.14103E-5
1.49514E-5,0.39674E-6
4.91812E-5,2.93776E-5
8.64043E-5,0.01043E-5
-8.94069E-7,4.93153E-5
-5.77308E-5,1.28187E-5
4.32319E-6,-1.19768E-5
5.05708E-5,1.18203E-5
3.24565E-5,-2.44788E-5
4.81344E-5,1.02482E-5
3.02828E-5,-1.99917E-5
-1.29863E-5,-3.47569E-5
7.88867E-5,-1.38506E-5
-1.58241E-5,0.24056E-5
0.88233E-5,-2.93366E-5
-5.33647E-6,-1.29435E-5
6.54682E-5,-6.97523E-5
1.43144E-5,3.67499E-6
3.61390E-5,0.92312E-5
0.53420E-5,2.55629E-5
2.35065E-5,-2.36965E-5
END
BEGIN
0.00732E-1,1.05578E0
-2.24609E-2,1.05566E0
-4.29687E-2,1.05493E0
-6.40869E-2,1.05481E0
-8.74023E-2,1.05261E0
-1.08398E-1,1.05127E0
-1.29028E-1,1.04968E0
-1.52587E-1,1.04528E0
-1.75048E-1,1.04394E0
-1.95678E-1,1.04235E0
-2.17895E-1,1.03845E0
-2.39624E-1,1.03466E0
-2.61596E-1,1.02893E0
-2.82348E-1,1.02099E0
-3.04748E-1,1.01629E0
-3.26904E-1,1.01159E0
-3.46496E-1,1.00457E0
-3.67248E-1,9.97924E-1
-3.88977E-1,9.89074E-1
-4.09301E-1,9.81994E-1
-4.30786E-1,9.72595E-1
-4.50134E-1,9.64294E-1
-4.71374E-1,9.53613E-1
-4.91088E-1,9.44091E-1
-5.10559E-1,9.33776E-1
-5.33691E-1,9.23584E-1
-5.51086E-1,9.12536E-1
-5.69763E-1,8.98681E-1
-5.90881E-1,8.87085E-1
-6.07360E-1,8.75366E-1
-6.26220E-1,8.62121E-1
-6.45996E-1,8.48663E-1
-6.66046E-1,8.33923E-1
-6.82189E-1,8.20282E-1
-6.99401E-1,8.06671E-1
-7.17620E-1,7.90649E-1
-7.35168E-1,7.74932E-1
-7.50305E-1,7.58544E-1
-7.6651E-1,7.41546E-1
-7.8302E-1,7.26318E-1
-7.98706E-1,7.08221E-1
-8.12805E-1,6.92260E-1
-8.28826E-1,6.73126E-1
-8.42285E-1,6.56280E-1
-8.57025E-1,6.37298E-1
-8.70239E-1,6.18835E-1
-8.82354E-1,6.00036E-1
-8.93951E-1,5.80474E-1
-9.07348E-1,5.60394E-1
-9.20227E-1,5.40435E-1
-9.30664E-1,5.21637E-1
-9.41131E-1,5.02502E-1
-9.51171E-1,4.79797E-1
-9.61639E-1,4.59686E-1
-9.71435E-1,4.39819E-1
-9.79553E-1,4.18335E-1
-9.89746E-1,3.97186E-1
-9.96124E-1,3.74816E-1
-1.00402E0,3.53820E-1
-1.00970E0,3.29528E-1
-1.01800E0,3.10180E-1
-1.02459E0,2.85644E-1
-1.02960E0,2.63732E-1
-1.03570E0,2.42370E-1
-1.03955E0,2.17712E-1
-1.04412E0,1.95922E-1
-1.04565E0,1.73278E-1
-1.05108E0,1.50329E-1
-1.05401E0,1.30554E-1
-1.05603E0,1.05224E-1
-1.05914E0,0.81481E-1
-1.06036E0,0.58593E-1
-1.06170E0,0.36315E-1
-1.06182E0,0.12146E-1
-1.06073E0,-1.29394E-2
-1.06134E0,-3.61938E-2
-1.05932E0,-5.95703E-2
-1.05658E0,-8.08715E-2
-1.05615E0,-1.05285E-1
-1.05249E0,-1.26892E-1
-1.04956E0,-1.51733E-1
-1.04693E0,-1.72119E-1
-1.04083E0,-1.97021E-1
-1.03649E0,-2.19482E-1
-1.03344E0,-2.42126E-1
-1.02734E0,-2.66357E-1
-1.01928E0,-2.87963E-1
-1.01086E0,-3.09448E-1
-1.00561E0,-3.32519E-1
-9.93286E-1,-3.55346E-1
-9.88647E-1,-3.75122E-1
-9.80224E-1,-3.97460E-1
-9.69360E-1,-4.19921E-1
-9.59838E-1,-4.42138E-1
-9.48608E-1,-4.61669E-1
-9.375E-1,-4.81445E-1
-9.27246E-1,-5.03418E-1
-9.16503E-1,-5.25268E-1
-9.02465E-1,-5.41626E-1
-8.89526E-1,-5.63476E-1
-8.77075E-1,-5.82275E-1
-8.63769E-1,-6.00341E-1
-8.49731E-1,-6.21704E-1
-8.34106E-1,-6.38427E-1
-8.20678E-1,-6.55395E-1
-8.05419E-1,-6.75537E-1
-7.88940E-1,-6.93969E-1
-7.75268E-1,-7.08496E-1
-7.56591E-1,-7.26806E-1
-7.42065E-1,-7.42431E-1
-7.23266E-1,-7.60864E-1
-7.05444E-1,-7.72460E-1
-6.90307E-1,-7.90893E-1
-6.69677E-1,-8.04931E-1
-6.53076E-1,-8.19213E-1
-6.34399E-1,-8.33862E-1
-6.14257E-1,-8.46557E-1
-5.95459E-1,-8.59741E-1
-5.74707E-1,-8.70239E-1
-5.54687E-1,-8.84643E-1
-5.35400E-1,-8.94531E-1
-5.16479E-1,-9.06127E-1
-4.96215E-1,-9.19677E-1
-4.74853E-1,-9.27490E-1
-4.55200E-1,-9.36889E-1
-4.32251E-1,-9.43847E-1
-4.13452E-1,-9.57763E-1
-3.91845E-1,-9.62158E-1
-3.67919E-1,-9.73022E-1
-3.47778E-1,-9.79248E-1
-3.25561E-1,-9.84497E-1
-3.03100E-1,-9.90234E-1
-2.79296E-1,-9.98291E-1
-2.60498E-1,-1.00219E0
-2.35595E-1,-1.00891E0
-2.13623E-1,-1.01110E0
-1.94702E-1,-1.01489E0
-1.71752E-1,-1.01916E0
-1.48925E-1,-1.02160E0
-1.24877E-1,-1.02490E0
-1.02905E-1,-1.02783E0
-8.00781E-2,-1.03002E0
-5.88378E-2,-1.02917E0
-3.68652E-2,-1.03088E0
-1.15966E-2,-1.03076E0
0.06713E-1,-1.03186E0
0.31494E-1,-1.02954E0
0.53222E-1,-1.02893E0
0.74829E-1,-1.02661E0
0.95825E-1,-1.02551E0
1.19201E-1,-1.0224E0
1.41174E-1,-1.01904E0
1.61377E-1,-1.01599E0
1.85485E-1,-1.01165E0
2.05749E-1,-1.00787E0
2.29675E-1,-1.00189E0
2.49450E-1,-9.95666E-1
2.71057E-1,-9.91821E-1
2.92602E-1,-9.84130E-1
3.13171E-1,-9.78576E-1
3.34411E-1,-9.71069E-1
3.53454E-1,-9.61425E-1
3.76342E-1,-9.53979E-1
3.95507E-1,-9.45617E-1
4.15100E-1,-9.36767E-1
4.36645E-1,-9.27124E-1
4.55444E-1,-9.17053E-1
4.76623E-1,-9.06616E-1
4.93530E-1,-8.95507E-1
5.13610E-1,-8.85070E-1
5.31616E-1,-8.74267E-1
5.51818E-1,-8.61694E-1
5.70007E-1,-8.49975E-1
5.87646E-1,-8.38378E-1
6.05835E-1,-8.23547E-1
6.22192E-1,-8.12744E-1
6.39892E-1,-7.97546E-1
6.56372E-1,-7.83935E-1
6.71936E-1,-7.70874E-1
6.88049E-1,-7.54943E-1
7.05566E-1,-7.40600E-1
7.19116E-1,-7.26989E-1
7.34985E-1,-7.10449E-1
7.49572E-1,-6.94397E-1
7.63732E-1,-6.78344E-1
7.77099E-1,-6.63879E-1
7.90588E-1,-6.45813E-1
8.04321E-1,-6.29821E-1
8.18237E-1,-6.11999E-1
8.30261E-1,-5.95397E-1
8.43505E-1,-5.77819E-1
8.53210E-1,-5.59936E-1
8.66638E-1,-5.43029E-1
8.76831E-1,-5.24292E-1
8.88244E-1,-5.05127E-1
8.98132E-1,-4.86084E-1
9.07104E-1,-4.67346E-1
9.17053E-1,-4.50317E-1
9.28100E-1,-4.31030E-1
9.35913E-1,-4.11377E-1
9.44091E-1,-3.92761E-1
END

